,time delay,stg_pos,V_in,V_out,ratio,DVD,poly fit,poly res,Residual FFT,Associated F,Sine Res Fit
0,-19.0,51.0005,-39.06177,8.48164,4.605755,4.0780295e-05,-17.57951214684386,-21.482257853156142,1.4450669606200583e-23,0.0,-7.731763558499475
1,-18.0,51.175650000000005,-39.07084,8.48014,4.607635,4.110411e-05,-31.11835347687871,-7.952486523121287,443.67390730282415,0.017241379310344827,-1.5153047795623509
2,-17.0,51.326375,-39.08442,8.488185,4.60482,4.101857e-05,-41.317636327826655,2.2332163278266535,67655.69159645577,0.034482758620689655,4.748610852269355
3,-16.0,51.476125,-39.06984,8.499775,4.596915,4.0987845e-05,-48.525054481562385,9.455214481562386,193810.9726964405,0.05172413793103448,10.309115202559761
4,-15.0,51.624925,-39.09149,8.496255,4.60139,4.1015670000000006e-05,-53.070419556047604,13.978929556047603,155807.58635459546,0.06896551724137931,14.49965945848518
5,-14.0,51.775275,-39.074875,8.501785,4.59656,4.1055315e-05,-55.26596750209914,16.19109250209914,45867.81674782139,0.08620689655172414,16.817914672361876
6,-13.0,51.9241,-39.073365,8.49775,4.59859,4.0969205e-05,-55.40666510015685,16.333300100156848,37660.039550518944,0.10344827586206896,16.9859869404559
7,-12.0,52.075825,-39.07537,8.49574,4.5997900000000005,4.0960785e-05,-53.770516457051606,14.695146457051607,55147.88468916941,0.12068965517241378,14.98372910277792
8,-11.0,52.225675,-39.070845,8.506310000000001,4.5934550000000005,4.091158e-05,-50.618869502773215,11.548024502773217,22373.045614632425,0.13793103448275862,11.051155823573543
9,-10.0,52.37635,-39.06178,8.515385,4.5875900000000005,4.084744e-05,-46.19672248723848,7.134942487238483,17964.484924614924,0.15517241379310345,5.659672551965189
10,-9.0,52.527150000000006,-39.06831,8.506325,4.59317,4.09269e-05,-40.73303047705908,1.6647204770590847,22857.959976480404,0.1724137931034483,-0.5444327950416207
11,-8.0,52.67515,-39.090975,8.51336,4.5919550000000005,4.100583e-05,-34.44101185230955,-4.64996314769045,10878.997896837056,0.1896551724137931,-6.817461661853756
12,-7.0,52.825275,-39.078895,8.500775,4.597415,4.080766e-05,-27.518454803295285,-11.560440196704718,9088.089359491942,0.20689655172413793,-12.407453492273767
13,-6.0,52.973175000000005,-39.078395,8.50078,4.59741,4.069577e-05,-20.148023827320493,-18.930371172679507,14908.320841454686,0.22413793103448276,-16.644324750072464
14,-5.0,53.12497499999999,-39.074375,8.51135,4.591065,4.067622e-05,-12.49756622545614,-26.576808774543863,7706.4800274007075,0.24137931034482757,-19.020193176903085
15,-4.0,53.27475,-39.09651,8.5048,4.59726,4.082024e-05,-4.720418599307944,-34.37609140069206,5203.540384672276,0.25862068965517243,-19.250258657602238
16,-3.0,53.425275,-39.09147,8.512355,4.592555,4.09024e-05,3.044286652215682,-42.13575665221568,6074.486944125029,0.27586206896551724,-17.30694278140513
17,-2.0,53.576275,-38.99833,8.520914999999999,4.576995,4.09376e-05,10.671314836135638,-49.66964483613564,2943.173677294835,0.29310344827586204,-13.423194721376063
18,-1.0,53.72645,-30.745275,8.49825,3.617735,4.1155145e-05,18.049022468634195,-48.7942974686342,2052.61510585577,0.3103448275862069,-8.064567149654113
19,0.0,53.875775,34.679915,8.417175,-4.13817278,4.0916135e-05,25.079050778287005,9.600864221712996,2526.1568495297406,0.3275862068965517,-1.8734095045791541
20,1.0,54.0243,109.10442,8.36732,-13.042635,4.0881595e-05,31.676019209295156,77.42840079070484,1024.8956756358234,0.3448275862068966,4.4081317252639
21,2.0,54.17555,91.648105,8.43884,-10.860965,4.096173e-05,37.767218924717184,53.88088607528282,863.6177791382571,0.3620689655172414,10.027075589642328
22,3.0,54.320925,76.03831,8.42222,-9.028835,4.098175e-05,43.29230630970112,32.74600369029888,1642.3118693028566,0.3793103448275862,14.309868013928208
23,4.0,54.474368421052624,73.92572105263157,8.383142105263158,-8.818663157894736,4.1076200000000005e-05,48.20299647471652,25.722724577915052,443.3000123567845,0.39655172413793105,16.743122077413723
24,4.5,54.488,70.7375,8.4293,-8.3919,4.00355e-05,50.41607545252388,20.32142454747612,396.9043801803994,0.41379310344827586,17.16520099009051
25,5.0,54.625825,66.90605500000001,8.38898,-7.97631,4.1003975e-05,52.46275675878651,14.443298241213498,601.5822066687559,0.43103448275862066,17.03515873353361
26,6.0,54.775175,61.741245000000006,8.41113,-7.341675,4.0910755e-05,56.046500232719794,5.694744767280213,98.82013011554939,0.4482758620689655,15.150970962389122
27,7.0,54.926225,63.085185,8.400565,-7.510854999999999,4.115891e-05,58.94027920234268,4.144905797657323,178.50465034595175,0.46551724137931033,11.316420132459836
28,8.0,55.076575000000005,63.903445,8.38747,-7.620685,4.1032585e-05,61.14097871173119,2.7624662882688114,236.6520105181866,0.48275862068965514,5.991161545205591
29,9.0,55.2244,61.63651,8.385445,-7.351855,4.088198e-05,62.656010046442965,-1.019500046442964,1.241304088125255,-0.5,-0.18645536815195562
30,10.0,55.37542499999999,58.292985,8.37236,-6.963205,4.069633e-05,63.50300423674944,-5.210019236749439,236.6520105181866,-0.48275862068965514,-6.475907273706417
31,11.0,55.519025,55.00737,8.364794999999999,-6.577075000000001,4.093579e-05,63.709505560867754,-8.702135560867752,178.50465034595211,-0.46551724137931033,-12.123264952655896
32,12.0,55.675694444444446,53.22378333333333,8.364344444444445,-6.364222222222222,4.103382222222223e-05,63.31266504819285,-10.088881714859518,98.82013011554939,-0.4482758620689655,-16.451568309411606
33,12.5,55.6935,53.727900000000005,8.32855,-6.45095,4.084155e-05,62.90215271883006,-9.174252718830054,601.5822066687554,-0.43103448275862066,-17.95089295461608
34,13.0,55.82202631578948,51.008210526315786,8.353994736842106,-6.106905263157895,4.102876315789474e-05,62.358933982529514,-11.350723456213728,396.9043801803994,-0.41379310344827586,-18.94197493647939
35,13.5,55.8445,48.773,8.4293,-5.7861,4.10159e-05,61.690218129892365,-12.917218129892362,443.3000123567845,-0.39655172413793105,-19.394887592590294
36,14.0,55.973925,49.164265,8.369335,-5.87564,4.100558e-05,60.90375740532436,-11.739492405324363,1642.3118693028566,-0.3793103448275862,-19.295954794828976
37,15.0,56.1246,48.23827,8.373355,-5.761895,4.0735875e-05,59.011267618897904,-10.772997618897904,863.6177791382589,-0.3620689655172414,-17.471075608630187
38,16.0,56.27775,48.07702222222222,8.35203888888889,-5.757155555555555,4.078420555555556e-05,56.753977689676596,-8.676955467454377,1024.8956756358234,-0.3448275862068966,-13.686089307290992
39,16.5,56.293,46.77395,8.439350000000001,-5.543,3.98866e-05,55.51340919302234,-8.739459193022341,2526.156849529741,-0.3275862068965517,-11.19248256916571
40,17.0,56.42545,47.643575,8.353204999999999,-5.704585,4.0946415e-05,54.212474951424824,-6.568899951424825,2052.61510585577,-0.3103448275862069,-8.394709792785015
41,18.0,56.573725,47.21205,8.361275000000001,-5.647175,4.1015695e-05,51.475114508476935,-4.263064508476937,2943.1736772948366,-0.29310344827586204,-2.2312253439100873
42,19.0,56.726275,46.827345,8.359775,-5.60227,4.119513e-05,48.63771273896937,-1.8103677389693686,6074.486944125029,-0.27586206896551724,4.065534792299706
43,20.0,56.874425,46.30417,8.361285,-5.538885,4.102046e-05,45.8032407980726,0.5009292019273985,5203.540384672273,-0.25862068965517243,9.740765344770894
44,21.0,57.0241,45.254775,8.37436,-5.405035,4.0962575e-05,43.081518121223155,2.173256878776847,7706.4800274007075,-0.24137931034482757,14.114165040642712
45,22.0,57.16955,44.112235,8.373365,-5.268905,4.098082e-05,40.58890592735568,3.523329072644316,14908.32084145469,-0.22413793103448276,16.661485683771836
46,23.0,57.3166875,43.0930625,8.36190625,-5.15459375,4.111576875e-05,38.44800072213501,4.6450617778649885,9088.089359491942,-0.20689655172413793,17.077374837832902
47,23.5,57.341125000000005,43.5639,8.353725,-5.2151250000000005,4.148735e-05,37.54937918256374,6.0145208174362566,10878.997896837056,-0.1896551724137931,16.46009180020866
48,24.0,57.47667647058823,42.44675882352941,8.375935294117648,-5.068347058823529,4.1245105882352937e-05,36.78732780118816,5.659431022341245,22857.959976480404,-0.1724137931034483,15.31197903550668
49,24.5,57.49366666666666,42.5056,8.345333333333334,-5.093633333333333,4.07533e-05,36.178788328767155,6.326811671232846,17964.48492461493,-0.15517241379310345,13.667704899875124
50,25.0,57.625736842105255,41.79765789473684,8.378389473684209,-4.989363157894736,4.107606315789474e-05,35.74103475333634,6.056623141400493,22373.045614632425,-0.13793103448275862,11.576919813631454
51,25.5,57.639,41.6026,8.3185,-5.0012,4.06259e-05,35.49166372218403,6.1109362778159735,55147.88468916941,-0.12068965517241378,9.102757019630939
52,26.0,57.774,41.24658,8.373345,-4.926495,4.0997095e-05,35.44858496382707,5.797995036172935,37660.039550518944,-0.10344827586206896,6.319926214993979
53,27.0,57.9262,40.81606,8.38192,-4.87014,4.080895e-05,36.05445111756608,4.761608882433919,45867.81674782139,-0.08620689655172414,0.17116460966652114
54,28.0,58.0726,40.40566,8.381425,-4.82141,4.0800105e-05,37.707808702349496,2.6978512976505016,155807.58635459546,-0.06896551724137931,-6.13230061211215
55,29.0,58.223875,40.000825,8.387975,-4.769355,4.0848645e-05,40.56222951209568,-0.5614045120956845,193810.9726964405,-0.05172413793103448,-11.834860427208614
56,30.0,58.374325,39.585895,8.38494,-4.72149,4.05232e-05,44.77537515007759,-5.189480150077593,67655.69159645577,-0.034482758620689655,-16.252937549218974
57,31.0,58.5223,39.173,8.385455,-4.671835,4.0718555e-05,50.50869053215437,-11.335690532154366,443.67390730282654,-0.017241379310344827,-18.856928209289848
