,time delay,stg_pos,V_in,V_out,ratio,DVD,poly fit,poly res,Residual FFT,Associated F,Sine Res Fit
0,-19.0,51.0005,-39.726435,3.1425650000000003,12.65147,4.2211365e-05,-6.498304649700444,-33.22813035029956,5.29993359273478e-24,0.0,-11.280052209896665
1,-18.0,51.1764,-39.744575,3.155665,12.609245,4.2348965e-05,-26.544000971981873,-13.200574028018124,1843.491113970544,0.017857142857142856,-0.6027126633590383
2,-17.0,51.325375,-39.743055,3.154165,12.61578,4.231152e-05,-42.028146982229,2.2850919822290052,225462.5993156716,0.03571428571428571,9.817426715379899
3,-16.0,51.475675,-39.733505,3.13753,12.68189,4.241833e-05,-53.32969877315938,13.596193773159378,559504.8077605224,0.05357142857142857,18.831190801751326
4,-15.0,51.624675,-39.718895,3.14055,12.661515,4.213953e-05,-60.818055306190004,21.09916030619,348854.8640152036,0.07142857142857142,25.44450522781304
5,-14.0,51.7752,-39.72494,3.128465,12.711115,4.2095635e-05,-64.85269494107698,25.12775494107698,66440.45242579155,0.08928571428571427,28.928026924998427
6,-13.0,51.924575,-39.72594,3.1239350000000004,12.73389,4.224821e-05,-65.7828119655552,26.056871965555196,112283.16502094893,0.10714285714285714,28.897579028219738
7,-12.0,52.0754,-39.734495,3.117375,12.76359,4.220026e-05,-63.946953124978364,24.21245812497836,86560.33925949635,0.125,25.356519454708426
8,-11.0,52.225425,-39.744065,3.112845,12.78419,4.2174665e-05,-59.672654151958625,19.928589151958626,26593.425131368593,0.14285714285714285,18.695370579318464
9,-10.0,52.375975,-39.737515,3.120405,12.750255,4.218049e-05,-53.27607629600641,13.538561296006407,39972.387427608985,0.1607142857142857,9.648750847199086
10,-9.0,52.527475,-39.749105,3.14407,12.65423,4.205351e-05,-45.06164285317021,5.3125378531702125,37472.18041976792,0.17857142857142855,-0.7856419201793634
11,-8.0,52.6762,-39.74456,3.19847,12.44301,4.219488e-05,-35.32167569567646,-4.422884304323539,22738.26415827754,0.19642857142857142,-11.457060676888068
12,-7.0,52.825125,-39.73601,3.201495,12.422195,4.221434e-05,-24.33603180156919,-15.399978198430809,27431.134861578324,0.21428571428571427,-21.188618192024087
13,-6.0,52.973425,-39.72946,3.202495,12.41615,4.209199e-05,-12.371739784349984,-27.35772021565002,21359.039037673545,0.23214285714285712,-28.907078934542312
14,-5.0,53.1253,-39.72845,3.195945,12.44152,4.194303e-05,0.31736357738242305,-40.045813577382425,10959.537572081457,0.25,-33.76121982931196
15,-4.0,53.275200000000005,-39.712855000000005,3.17228,12.52525,4.2163645e-05,13.490996810292138,-53.20385181029214,13077.089805547617,0.26785714285714285,-35.21570658139993
16,-3.0,53.425325,-39.7194,3.190915,12.45388,4.206658e-05,26.92279721666644,-66.64219721666643,9350.063157891971,0.2857142857142857,-33.11013250777044
17,-2.0,53.57705,-39.65898,3.176805,12.492755,4.216297e-05,40.400684344775975,-80.05966434477597,3671.1013634025985,0.30357142857142855,-27.67670883520313
18,-1.0,53.727250000000005,-31.19293,3.209535,9.76365,4.215133e-05,53.72722345923492,-84.92015345923492,5032.27745452271,0.3214285714285714,-19.514655506810975
19,0.0,53.877975000000006,62.01826,3.357095,-18.142813015,4.217358e-05,66.7199890113612,-4.701729011361209,3867.4572670913217,0.33928571428571425,-9.524116782615135
20,1.0,54.0256,181.94475,3.559,-51.16644,4.2071735e-05,79.21192810953674,102.73282189046326,1807.0576758402872,0.3571428571428571,1.193110310915432
21,2.0,54.17379999999999,168.5068,3.5449150000000005,-47.55829,4.203229e-05,91.05172398956759,77.4550760104324,3886.4388259092716,0.375,11.455086614178995
22,3.0,54.313175,157.99785,3.49456,-45.29502,4.1727275e-05,102.10415948504419,55.89369051495581,2227.061487442105,0.39285714285714285,20.130079866406938
23,4.0,54.477,160.98007142857142,3.43485,-46.95044285714285,4.168008571428571e-05,112.25048049770155,48.729590930869875,890.5723781894077,0.4107142857142857,26.261376717718015
24,4.5,54.49183333333334,160.18316666666666,3.48785,-45.97936666666666,4.238828333333333e-05,116.95132848524493,43.231838181421736,1733.6514087841347,0.42857142857142855,28.148580959270262
25,5.0,54.623375,157.56824999999998,3.42607,-46.07768,4.20646e-05,121.38875946777944,36.17949053222054,255.53381251356706,0.4464285714285714,29.172792947654543
26,6.0,54.77605,147.54185,3.42357,-43.189975,4.190137e-05,129.4342588443826,18.1075911556174,518.7675320285501,0.46428571428571425,28.543245796466152
27,7.0,54.9261,146.19580000000002,3.43917,-42.568705,4.209317e-05,136.31979455584104,9.876005444158977,782.9214635790253,0.4821428571428571,24.442164270771023
28,8.0,55.073575000000005,147.31775,3.441185,-42.867735,4.191653e-05,141.9960994800701,5.321650519929904,10.062414435074164,-0.5,17.32183223183626
29,9.0,55.22552777777778,145.2616111111111,3.451494444444444,-42.15295555555556,4.195945e-05,146.4321869149306,-1.1705758038195029,782.9214635790279,-0.4821428571428571,7.967508701677364
30,9.5,55.243,145.13600000000002,3.29315,-44.091,4.25532e-05,148.18055372954205,-3.044553729542031,518.7675320285499,-0.46428571428571425,2.768338701890233
31,10.0,55.3731,140.8788,3.43465,-41.08161,4.2078395e-05,149.6157140485894,-8.736914048589398,255.5338125135671,-0.4464285714285714,-2.5891736785952877
32,11.0,55.525,136.5529,3.431125,-39.841295,4.208203e-05,151.5533454298792,-15.000445429879193,1733.6514087841347,-0.42857142857142855,-13.183981269829443
33,12.0,55.6664,134.428,3.421055,-39.340045,4.2092195e-05,152.27111643865885,-17.843116438658853,890.5723781894077,-0.4107142857142857,-22.648475830375425
34,13.0,55.82984210526316,132.5443684210526,3.4293736842105265,-38.70601578947369,4.203692631578947e-05,151.81479675617382,-19.27042833512121,2227.0614874421076,-0.39285714285714285,-29.938874612203207
35,13.5,55.8405,131.485,3.4039,-38.6274,4.12919e-05,151.1661414769155,-19.681141476915485,3886.4388259092666,-0.375,-32.50551422963199
36,14.0,55.973575,129.58855,3.4084650000000005,-38.07691,4.1732055e-05,150.250253835416,-20.661703835416006,1807.0576758402913,-0.3571428571428571,-34.25116294489898
37,15.0,56.1253,126.9318,3.4049350000000005,-37.323905,4.2005465e-05,147.66381637148424,-20.73201637148425,3867.4572670913094,-0.33928571428571425,-35.109764226098534
38,16.0,56.277075,125.1406,3.39487,-36.903315,4.1799245e-05,144.16263777194425,-19.02203777194424,5032.277454522706,-0.3214285714285714,-32.419988433105004
39,17.0,56.4254,123.66075,3.4054450000000003,-36.344495,4.191845e-05,139.8750596271891,-16.21430962718911,3671.101363402604,-0.30357142857142855,-26.47847492165313
40,18.0,56.575525000000006,121.99395,3.4069450000000003,-35.839415,4.1929865e-05,134.9509751807993,-12.957025180799306,9350.063157891971,-0.2857142857142857,-17.940477837726895
41,19.0,56.72315,120.58345,3.412485,-35.36551,4.191603e-05,129.5621927999029,-8.978742799902903,13077.089805547612,-0.26785714285714285,-7.7476020395596015
42,20.0,56.8738,119.4592,3.3918350000000004,-35.252445,4.1964415e-05,123.90279944553586,-4.443599445535867,10959.53757208147,-0.25,2.9760408953229707
43,21.0,57.023025,118.24005,3.38026,-35.024860000000004,4.1825525e-05,118.18952414300216,0.05052585699783663,21359.039037673578,-0.23214285714285712,13.047804242379982
44,22.0,57.1683,116.93635,3.381265,-34.63101,4.200639e-05,112.66210145223403,4.274248547765978,27431.134861578295,-0.21428571428571427,21.356933195145302
45,23.0,57.32767647058824,115.77311764705884,3.399776470588235,-34.09568235294118,4.208517647058824e-05,107.58363493815214,8.189482708906695,22738.26415827754,-0.19642857142857142,26.98706339875867
46,23.5,57.3425,115.536,3.356933333333333,-34.46863333333334,4.2269e-05,105.3014595214917,10.234540478508308,37472.18041976792,-0.17857142857142855,28.58979333283117
47,24.0,57.475350000000006,114.54665,3.38479,-33.885465,4.1995355e-05,103.24096064102582,11.305689358974178,39972.387427608985,-0.1607142857142857,29.31728131810204
48,25.0,57.626675,113.48965,3.406445,-33.360565,4.203174e-05,99.9450105468332,13.544639453166795,26593.425131368593,-0.14285714285714285,28.09060109431082
49,26.0,57.7751,112.78119999999998,3.39888,-33.23434,4.1934765e-05,98.03117605762176,14.75002394237822,86560.33925949632,-0.125,23.442305984906284
50,27.0,57.92552500000001,112.1569,3.3858,-33.17204,4.207008e-05,97.85967146186786,14.297228538132131,112283.16502094893,-0.10714285714285714,15.885028778877933
51,28.0,58.07452500000001,111.4519,3.41802,-32.648935,4.192042e-05,99.81589740483753,11.636002595162466,66440.45242579155,-0.08928571428571427,6.252216578896782
52,29.0,58.224875,110.92625,3.40594,-32.607625,4.207811e-05,104.31080435894643,6.615445641053569,348854.8640152036,-0.07142857142857142,-4.393785116814018
53,30.0,58.3674,110.47805,3.4195300000000004,-32.33153,4.1939615e-05,111.78125609412015,-1.3032060941201564,559504.8077605224,-0.05357142857142857,-14.87889217366125
54,31.0,58.51418421052632,109.9765789473684,3.408178947368421,-32.292842105263155,4.173554210526316e-05,122.69039314815447,-12.713814200786075,225462.59931567157,-0.03571428571428571,-24.046764568712547
55,31.5,58.5445,110.96,3.4241,-32.4059,4.0626e-05,129.5864745893038,-18.62647458930381,1843.4911139705457,-0.017857142857142856,-27.81188759699026
