time delay,stg_pos,V_in,V_out,ratio,DVD
101.0,70.5005,-19.421715,-23.66324,-0.8209349250000001,3.5064394999999995e-05
102.0,70.674325,-19.41165,-23.61622,-0.8221252550000001,3.52327e-05
103.0,70.8246,-19.352915,-23.646465,-0.818570875,3.531795e-05
104.0,70.97595,-19.2992,-23.680015,-0.8151580949999999,3.5356965e-05
105.0,71.126325,-19.228704999999998,-23.643054999999997,-0.813387565,3.535822e-05
106.0,71.277675,-19.050819999999998,-23.7119,-0.80359818,3.5393375e-05
107.0,71.42705,-18.97695,-23.66493,-0.8020775499999999,3.531564e-05
108.0,71.57585,-18.827545,-23.7203,-0.793874925,3.5240085e-05
109.0,71.72605,-18.69158,-23.644754999999996,-0.79071263,3.527104e-05
110.0,71.87480000000001,-18.585839999999997,-23.71696,-0.78385677,3.5278084999999996e-05
111.0,72.024775,-18.43313,-23.685055,-0.778421075,3.5344475e-05
112.0,72.17542499999999,-18.369315,-23.681705,-0.77584211,3.5306390000000004e-05
113.0,72.325275,-18.34751,-23.666575,-0.77542434,3.5179690000000004e-05
114.0,72.4758,-18.230035,-23.73539,-0.7682026750000001,3.531612e-05
115.0,72.626125,-18.132685000000002,-23.674985,-0.766064555,3.5296855e-05
116.0,72.775325,-18.147765,-23.76392,-0.7638736500000001,3.528208e-05
117.0,72.925225,-18.080625,-23.752195,-0.76129355,3.544296e-05
118.0,73.07497500000001,-18.114195000000002,-23.65652,-0.7658566099999999,3.5492515e-05
119.0,73.225275,-18.047045,-23.757245,-0.7598076500000001,3.532337e-05
120.0,73.376075,-18.11923,-23.73037,-0.763746935,3.5428470000000006e-05
121.0,73.526325,-18.201465000000002,-23.730349999999998,-0.767177765,3.549195e-05
122.0,73.6768,-18.271995,-23.6649,-0.772313295,3.52112e-05
123.0,73.82809999999999,-18.30387,-23.66152,-0.773720355,3.5188525e-05
124.0,73.9764,-18.45156,-23.70685,-0.778451105,3.518065e-05
125.0,74.12627499999999,-18.5472,-23.66993,-0.783779915,3.5266254999999995e-05
126.0,74.275275,-18.674799999999998,-23.666565,-0.78923698,3.532413e-05
127.0,74.425025,-18.772164999999998,-23.71523,-0.79169966,3.5229085000000004e-05
128.0,74.57532499999999,-18.9165,-23.678334999999997,-0.799170795,3.532898e-05
129.0,74.72585000000001,-19.03903,-23.683355,-0.8041159950000001,3.5384895e-05
130.0,74.87565,-19.14479,-23.740434999999998,-0.8066252049999999,3.5403414999999995e-05
131.0,75.026525,-19.272305,-23.71359,-0.812892265,3.5314214999999996e-05
132.0,75.17542499999999,-19.33947,-23.716929999999998,-0.8156025899999999,3.5294825e-05
133.0,75.325375,-19.38982,-23.701805,-0.81822242,3.5384644999999996e-05
134.0,75.4753,-19.443535,-23.73374,-0.819415795,3.5334995e-05
135.0,75.62502500000001,-19.539205000000003,-23.695114999999998,-0.82474925,3.5203215e-05
136.0,75.77482499999999,-19.594595,-23.713585000000002,-0.82648244,3.5563705e-05
137.0,75.92535000000001,-19.58117,-23.6582,-0.82789901,3.5423525e-05
138.0,76.0759,-19.55435,-23.680015,-0.8260019850000001,3.537742e-05
139.0,76.22725,-19.57277,-23.72195,-0.82528042,3.5440505e-05
140.0,76.377,-19.539195,-23.70355,-0.824459465,3.5433815e-05
141.0,76.52545,-19.430124999999997,-23.668259999999997,-0.8211085949999999,3.5539385e-05
142.0,76.67580000000001,-19.3596,-23.70517,-0.8168633250000001,3.5458765000000004e-05
143.0,76.82502500000001,-19.337790000000002,-23.738774999999997,-0.8146938349999999,3.542763e-05
144.0,76.974975,-19.24044,-23.69345,-0.812255425,3.556381e-05
145.0,77.12604999999999,-19.116210000000002,-23.723665,-0.805945175,3.556906e-05
146.0,77.2763,-19.03231,-23.691724999999998,-0.803487845,3.550391e-05
147.0,77.427375,-18.931615,-23.703525,-0.798860275,3.56593e-05
148.0,77.577275,-18.72016,-23.73708,-0.788745775,3.5565230000000005e-05
149.0,77.72615,-18.577435,-23.7589,-0.78203477,3.565331e-05
150.0,77.87559999999999,-18.46835,-23.730375,-0.77839145,3.563685e-05
151.0,78.02552499999999,-18.3643,-23.720305,-0.77437504,3.568345e-05
152.0,78.17455,-18.275335000000002,-23.701829999999998,-0.7712409250000001,3.5663245e-05
153.0,78.325675,-18.172955,-23.73369,-0.76584398,3.5635730000000004e-05
154.0,78.47595,-18.05711,-23.678314999999998,-0.762720135,3.5627745e-05
155.0,78.62635,-18.04035,-23.71192,-0.7609003750000001,3.5631855000000004e-05
156.0,78.77759999999999,-17.964795000000002,-23.732055,-0.757147155,3.5612225e-05
157.0,78.92677499999999,-17.964815,-23.671609999999998,-0.7590297749999999,3.550083e-05
158.0,79.07565,-17.954735,-23.738755,-0.75649371,3.543984e-05
159.0,79.225875,-17.944665,-23.740425,-0.756032535,3.5603005e-05
160.0,79.37497499999999,-17.98328,-23.812594999999998,-0.755355005,3.5568355e-05
161.0,79.524975,-18.053800000000003,-23.775669999999998,-0.75942403,3.559984e-05
162.0,79.67575000000001,-18.072235,-23.721974999999997,-0.761988575,3.549365e-05
163.0,79.8255,-18.14777,-23.779055,-0.763338145,3.5402280000000004e-05
164.0,79.977025,-18.240125,-23.76396,-0.767667795,3.54685e-05
165.0,80.1259,-18.418005,-23.80256,-0.77389762,3.5389235e-05
166.0,80.275275,-18.433105,-23.762265,-0.7759022200000001,3.544928e-05
167.0,80.42505,-18.523765,-23.792435,-0.778764665,3.531151e-05
168.0,80.574675,-18.706685,-23.795825,-0.786292345,3.547836e-05
169.0,80.724775,-18.82753,-23.78238,-0.791917825,3.557409e-05
170.0,80.8757,-18.9266,-23.774,-0.7963012,3.5598455000000005e-05
171.0,81.02605,-19.045745,-23.732035,-0.8026646749999999,3.5441694999999996e-05
172.0,81.1765,-19.127985000000002,-23.758879999999998,-0.80525946,3.535843e-05
173.0,81.32764999999999,-19.227005,-23.748835,-0.809825865,3.538918e-05
174.0,81.47642499999999,-19.28578,-23.737125,-0.8126882099999999,3.53385e-05
175.0,81.6258,-19.386464999999998,-23.77571,-0.8155727049999999,3.534015e-05
176.0,81.775375,-19.430135,-23.785795,-0.81703738,3.5405635e-05
177.0,81.925325,-19.409950000000002,-23.772315,-0.81665288,3.549217e-05
178.0,82.0757,-19.384774999999998,-23.774005,-0.815566435,3.5480325e-05
179.0,82.22585000000001,-19.463704999999997,-23.807579999999998,-0.8177121700000001,3.5405795e-05
180.0,82.37635,-19.404935000000002,-23.742089999999997,-0.81755256,3.5330079999999994e-05
181.0,82.52777499999999,-19.376405,-23.77062,-0.8153127,3.5510374999999996e-05
182.0,82.676375,-19.24045,-23.80923,-0.80832388,3.5402515e-05
183.0,82.825225,-19.13469,-23.80084,-0.8041637850000001,3.5360945e-05
184.0,82.976275,-19.09272,-23.79246,-0.80260268,3.5390575e-05
185.0,83.12502500000001,-18.91986,-23.768945,-0.79617286,3.5497384999999996e-05
186.0,83.27545,-18.874535,-23.78242,-0.793734965,3.5477535e-05
187.0,83.42625000000001,-18.716775,-23.812594999999998,-0.786141105,3.5478475e-05
188.0,83.5771,-18.616035,-23.77233,-0.78326748,3.5359375000000004e-05
189.0,83.728025,-18.43143,-23.797485,-0.774643365,3.544579e-05
190.0,83.87757500000001,-18.303865000000002,-23.792495,-0.76942491,3.5397705e-05
191.0,84.02612500000001,-18.196469999999998,-23.80089,-0.76468189,3.552389e-05
192.0,84.176225,-18.120925,-23.817619999999998,-0.760952905,3.5290855e-05
193.0,84.325125,-18.087315,-23.760575,-0.76140127,3.531761e-05
194.0,84.474575,-17.95306,-23.795835,-0.75458786,3.5380189999999996e-05
195.0,84.6259,-17.921215,-23.785764999999998,-0.75356147,3.538856e-05
196.0,84.775725,-17.818795,-23.784074999999998,-0.74929933,3.51295e-05
197.0,84.926,-17.766755,-23.78241,-0.7471153,3.5287215e-05
198.0,85.0769,-17.788585,-23.82604,-0.74672975,3.524641e-05
199.0,85.22505,-17.795275,-23.820999999999998,-0.7471887500000001,3.541415e-05
200.0,85.37595,-17.83222,-23.832745,-0.74835237,3.548181e-05
201.0,85.52465,-17.874215,-23.839475,-0.749862935,3.5505775e-05
202.0,85.67485,-17.946350000000002,-23.844495000000002,-0.75274446,3.5405195e-05
203.0,85.824825,-18.057135,-23.79582,-0.75900674,3.5391395e-05
204.0,85.9758,-18.11756,-23.86969,-0.75915714,3.5432815e-05
205.0,86.126725,-18.21826,-23.78071,-0.766257995,3.5363914999999996e-05
206.0,86.2778,-18.360915,-23.77565,-0.772381355,3.5529805e-05
207.0,86.42675,-18.429724999999998,-23.841124999999998,-0.773126425,3.569087e-05
208.0,86.575175,-18.545560000000002,-23.81091,-0.7790612,3.5523465000000004e-05
209.0,86.7256,-18.6631,-23.851205,-0.7825736799999999,3.5566135e-05
210.0,86.87502500000001,-18.762085,-23.804255,-0.788320115,3.5599615000000005e-05
211.0,87.025275,-18.88123,-23.758895,-0.7948372349999999,3.5417285e-05
212.0,87.17580000000001,-18.945045,-23.824345,-0.79535126,3.553302e-05
213.0,87.326275,-19.11452,-23.784100000000002,-0.80388211,3.5411200000000004e-05
214.0,87.477675,-19.171615,-23.8462,-0.80407293,3.5412840000000004e-05
215.0,87.627,-19.26732,-23.80257,-0.8096301699999999,3.527163e-05
216.0,87.775675,-19.26899,-23.768965,-0.81079221,3.5286775e-05
217.0,87.92557500000001,-19.35624,-23.79081,-0.8138518149999999,3.5248354999999996e-05
218.0,88.074925,-19.31096,-23.76059,-0.81292022,3.5219915e-05
219.0,88.22447500000001,-19.33277,-23.79582,-0.812641585,3.516984e-05
220.0,88.37597500000001,-19.3059,-23.79081,-0.811637205,3.5323845e-05
221.0,88.526325,-19.307595,-23.763939999999998,-0.81261285,3.5309945e-05
222.0,88.67682500000001,-19.15147,-23.75555,-0.8063269500000001,3.523754e-05
223.0,88.82752500000001,-19.069235,-23.790789999999998,-0.801706315,3.5255455e-05
224.0,88.97625000000001,-18.98699,-23.826034999999997,-0.797075115,3.5406149999999996e-05
225.0,89.125775,-18.82922,-23.83612,-0.790078625,3.5285605e-05
226.0,89.275225,-18.688215,-23.762255,-0.7866243500000001,3.523778e-05
227.0,89.42557500000001,-18.6446,-23.752175,-0.78517919,3.5383945e-05
228.0,89.575875,-18.50359,-23.804225,-0.77750282,3.5373225000000004e-05
229.0,89.72614999999999,-18.44484,-23.763955,-0.7763103,3.5264429999999996e-05
230.0,89.87625,-18.28374,-23.86969,-0.7661792249999999,3.5370189999999995e-05
231.0,90.026025,-18.110845,-23.841119999999997,-0.759776055,3.518658e-05
232.0,90.174775,-18.02523,-23.83276,-0.7564803149999999,3.504855e-05
233.0,90.3249,-17.932935,-23.852885,-0.751994675,3.5089755e-05
234.0,90.475125,-17.852325,-23.87304,-0.748011835,3.520365e-05
235.0,90.6243,-17.82046,-23.80254,-0.748833395,3.507848e-05
236.0,90.774875,-17.699595,-23.89318,-0.7409151549999999,3.4952105e-05
237.0,90.9254,-17.661009999999997,-23.78914,-0.742584185,3.499944e-05
238.0,91.076225,-17.67442,-23.829415,-0.741882535,3.504477e-05
239.0,91.22745,-17.686195,-23.836135,-0.742163405,3.501204e-05
240.0,91.377125,-17.728135,-23.879739999999998,-0.7425579950000001,3.5035385e-05
241.0,91.52584999999999,-17.75668,-23.873060000000002,-0.74394763,3.495177e-05
242.0,91.67595,-17.848995,-23.879725,-0.74764597,3.507917e-05
243.0,91.824925,-17.959780000000002,-23.829385,-0.7538877900000001,3.506188e-05
244.0,91.974975,-17.99835,-23.84113,-0.75515977,3.5135820000000005e-05
245.0,92.1257,-18.073905000000003,-23.90157,-0.7562844799999999,3.526151e-05
246.0,92.27645,-18.16454,-23.83442,-0.762192835,3.5200035e-05
247.0,92.4272,-18.367635,-23.85959,-0.76999951,3.5159655e-05
248.0,92.577325,-18.43312,-23.903225,-0.77130111,3.5249309999999995e-05
249.0,92.7257,-18.572409999999998,-23.883119999999998,-0.77775587,3.533945e-05
250.0,92.8759,-18.684865,-23.85623,-0.7833749,3.5473005e-05
251.0,93.025275,-18.867839999999998,-23.884805,-0.7901044500000001,3.5236335e-05
252.0,93.174625,-18.934925,-23.867984999999997,-0.79345912,3.527039e-05
253.0,93.32487499999999,-19.020575,-23.85963,-0.797306545,3.5115595e-05
254.0,93.47524999999999,-19.101145,-23.854615000000003,-0.8008526850000001,3.5149110000000006e-05
255.0,93.62559999999999,-19.087674999999997,-23.903254999999998,-0.798690055,3.509452e-05
256.0,93.776825,-19.206870000000002,-23.879759999999997,-0.80448567,3.5108185e-05
257.0,93.92575000000001,-19.24549,-23.85123,-0.80708458,3.5229435e-05
258.0,94.07480000000001,-19.235405,-23.874685,-0.80577147,3.5355665e-05
259.0,94.225225,-19.253875,-23.862945,-0.807024435,3.545494e-05
260.0,94.374775,-19.1565,-23.824379999999998,-0.8041791,3.5484645e-05
261.0,94.525775,-19.138044999999998,-23.859605,-0.802287955,3.530823e-05
262.0,94.6763,-19.097785,-23.84452,-0.80107336,3.5319035e-05
263.0,94.82669999999999,-18.968515,-23.87639,-0.794654485,3.5428985e-05
264.0,94.97695,-18.83424,-23.894855,-0.78844079,3.551864e-05
265.0,95.126675,-18.76713,-23.940170000000002,-0.78407203,3.533189e-05
266.0,95.27590000000001,-18.661365,-23.87301,-0.7818793700000001,3.5368715e-05
267.0,95.42609999999999,-18.54223,-23.886464999999998,-0.77637018,3.5350729999999996e-05
268.0,95.57485,-18.429724999999998,-23.87138,-0.77221569,3.541267e-05
269.0,95.72515,-18.283715,-23.884785,-0.765647265,3.5374615e-05
270.0,95.875775,-18.19813,-23.87138,-0.76238895,3.524016e-05
271.0,96.02605,-18.060480000000002,-23.908279999999998,-0.75550074,3.535915e-05
272.0,96.17685,-17.944679999999998,-23.8932,-0.751164225,3.5305155000000006e-05
273.0,96.3275,-17.760005,-23.876385,-0.74400522,3.523992e-05
274.0,96.47595,-17.75165,-23.866319999999998,-0.7439484199999999,3.525825e-05
275.0,96.62555,-17.62911,-23.864614999999997,-0.738828025,3.503023e-05
276.0,96.775575,-17.60393,-23.886475,-0.737160475,3.5145295e-05
277.0,96.924925,-17.531765,-23.903209999999998,-0.7336205650000001,3.5192174999999996e-05
278.0,97.075675,-17.575415,-23.86968,-0.73653123,3.505043e-05
279.0,97.225975,-17.565334999999997,-23.941825,-0.733824855,3.4801615e-05
280.0,97.3771,-17.588835,-23.967055,-0.734012165,3.5057895e-05
281.0,97.52725000000001,-17.68115,-23.93516,-0.738823,3.508812e-05
282.0,97.67635,-17.682825,-23.898204999999997,-0.740036455,3.5227845000000005e-05
283.0,97.825,-17.793619999999997,-23.893169999999998,-0.74482145,3.523131e-05
284.0,97.975125,-17.90775,-23.86631,-0.7504971300000001,3.5065325e-05
285.0,98.1241,-18.003415,-23.866295,-0.7545116700000001,3.5175345e-05
286.0,98.2741,-18.139365,-23.9066,-0.758951505,3.5183639999999996e-05
287.0,98.424825,-18.22332,-23.849545,-0.764266805,3.528944e-05
288.0,98.57525,-18.42473,-23.908265,-0.77074811,3.5261519999999996e-05
289.0,98.726325,-18.480115,-23.88981,-0.7736429,3.522776e-05
290.0,98.876575,-18.553975,-23.88816,-0.77685023,3.5385065e-05
291.0,99.0248,-18.718415,-23.938499999999998,-0.782073005,3.514305e-05
292.0,99.1754,-18.91482,-23.9083,-0.79133319,3.502929e-05
293.0,99.3245,-18.96687,-23.87809,-0.794451455,3.5208775e-05
294.0,99.474775,-19.059175,-23.847839999999998,-0.7993135849999999,3.525043e-05
295.0,99.62547500000001,-19.10447,-23.930075,-0.7985358,3.5312849999999995e-05
296.0,99.77602499999999,-19.106195,-23.872989999999998,-0.80051158,3.5142135e-05
297.0,99.92642500000001,-19.146449999999998,-23.914975,-0.80076049,3.5292645e-05
298.0,100.077775,-19.12632,-23.86464,-0.80157169,3.5277245e-05
299.0,100.2259,-19.13636,-23.85792,-0.8022709000000001,3.5178009999999995e-05
300.0,100.37492499999999,-19.16993,-23.92842,-0.80128521,3.543913e-05
301.0,100.5244,-19.11793,-23.88477,-0.80059576,3.5233735e-05
