time delay,stg_pos,V_in,V_out,ratio,DVD
101.0,69.0005,71.660005,3.409975,-21.03435,4.104127e-05
102.0,69.175275,71.693745,3.41904,-20.994999999999997,4.0983145e-05
103.0,69.322825,71.621735,3.420535,-20.972235,4.0966755e-05
104.0,69.475275,71.4888,3.43666,-20.83558,4.123635e-05
105.0,69.62535,71.39363499999999,3.427105,-20.864945,4.118514e-05
106.0,69.77595,71.36191,3.411485,-20.94506,4.114936e-05
107.0,69.92645,71.39412999999999,3.4134900000000004,-20.945574999999998,4.1297185e-05
108.0,70.07674999999999,71.507435,3.4270699999999996,-20.899695,4.1101715e-05
109.0,70.2255,71.62425,3.43866,-20.866035,4.095937e-05
110.0,70.37575,71.78286,3.438165,-20.923904999999998,4.0998955e-05
111.0,70.5254,71.92638500000001,3.4467100000000004,-20.909925,4.124123e-05
112.0,70.674925,72.058825,3.435145,-21.026204999999997,4.111805e-05
113.0,70.8253,72.17614,3.43262,-21.07954,4.110268e-05
114.0,70.976,72.270785,3.44823,-21.01463,4.1303635e-05
115.0,71.126775,72.287915,3.4255699999999996,-21.163415,4.1264669999999996e-05
116.0,71.27815,72.28842499999999,3.412485,-21.242155,4.133063e-05
117.0,71.426875,72.15397,3.4079500000000005,-21.220585,4.125167e-05
118.0,71.575825,72.056795,3.420035,-21.12632,4.1248135e-05
119.0,71.726125,71.79646,3.44823,-20.867365,4.1148334999999996e-05
120.0,71.87535,71.43843,3.4250599999999998,-20.906875,4.135362e-05
121.0,72.024975,70.98626,3.42859,-20.753325,4.1207695e-05
122.0,72.176275,70.48071,3.4190300000000002,-20.66338,4.1336435e-05
123.0,72.324975,69.94897,3.4416850000000005,-20.3791,4.1254094999999995e-05
124.0,72.47642499999999,69.25813000000001,3.434635,-20.221359999999997,4.1254575e-05
125.0,72.62535,68.47411,3.42658,-20.03081,4.1149935e-05
126.0,72.775375,67.70117,3.412495,-19.87623,4.1376180000000004e-05
127.0,72.92505,66.92369,3.416505,-19.636295,4.1292100000000004e-05
128.0,73.07475000000001,66.07824000000001,3.4195349999999998,-19.369385,4.1131194999999996e-05
129.0,73.22535,65.06765,3.4371699999999996,-18.96646,4.1085975e-05
130.0,73.37575000000001,64.151195,3.4427100000000004,-18.673415,4.1145715e-05
131.0,73.52647499999999,63.471900000000005,3.4442100000000004,-18.481975,4.1263565e-05
132.0,73.67725,62.65313999999999,3.4563,-18.170625,4.122159e-05
133.0,73.827875,61.855035,3.4406950000000003,-18.02038,4.119142e-05
134.0,73.976225,61.143035,3.43966,-17.828735,4.126672e-05
135.0,74.12595,60.50604500000001,3.41601,-17.760825,4.1361085e-05
136.0,74.2751,59.88167,3.411485,-17.598205,4.1397215000000005e-05
137.0,74.42535000000001,59.36351,3.417505,-17.418555,4.144574e-05
138.0,74.575625,58.858965,3.436145,-17.172455,4.1312115e-05
139.0,74.72630000000001,58.54476,3.4290999999999996,-17.11477,4.1082960000000003e-05
140.0,74.876525,58.19631,3.44169,-16.942375,4.11619e-05
141.0,75.02720000000001,57.94354,3.4366550000000005,-16.883725,4.1439375e-05
142.0,75.175175,57.74161,3.4537799999999996,-16.74289,4.1266224999999996e-05
143.0,75.3257,57.62076499999999,3.460825,-16.68299,4.1071275e-05
144.0,75.47555,57.54774,3.492035,-16.51087,4.0904024999999995e-05
145.0,75.62497499999999,57.587514999999996,3.497575,-16.492615,4.1176585e-05
146.0,75.77497500000001,57.709889999999994,3.487005,-16.575905,4.132456e-05
147.0,75.9257,57.82722,3.48247,-16.625645,4.1290940000000004e-05
148.0,76.075925,57.982815,3.495075,-16.610955,4.1359730000000005e-05
149.0,76.227175,58.21444,3.4970799999999995,-16.66233,4.1037865e-05
150.0,76.37695,58.49188,3.5121700000000002,-16.67667,4.1270695e-05
151.0,76.525625,58.645455000000005,3.51017,-16.725975,4.1379939999999996e-05
152.0,76.67585,58.89169,3.49456,-16.872165000000003,4.112684e-05
153.0,76.825375,59.091584999999995,3.493045,-16.940475,4.1060754999999995e-05
154.0,76.97552499999999,59.21345,3.470895,-17.08052,4.118081e-05
155.0,77.12595,59.208929999999995,3.480965,-17.027535,4.107915e-05
156.0,77.27590000000001,59.225035000000005,3.48649,-17.006145,4.1160815e-05
157.0,77.42725,59.168645000000005,3.4718899999999997,-17.07016,4.1256835e-05
158.0,77.576925,59.01204,3.4567900000000003,-17.10244,4.1334035000000003e-05
159.0,77.72607500000001,58.734590000000004,3.44672,-17.08827,4.0898695e-05
160.0,77.8759,58.38312499999999,3.47642,-16.832715,4.1136720000000003e-05
161.0,78.025475,57.959649999999996,3.4759149999999996,-16.70594,4.119417e-05
162.0,78.175275,57.43495,3.4547849999999998,-16.659280000000003,4.1019230000000004e-05
163.0,78.325625,56.91377,3.456295,-16.495195000000002,4.113964e-05
164.0,78.4761,56.410745,3.4361550000000003,-16.457615,4.1124135e-05
165.0,78.6266,55.78989,3.4215400000000002,-16.35141,4.1103785000000003e-05
166.0,78.778075,55.09298,3.425575,-16.132635,4.09814e-05
167.0,78.92637500000001,54.352779999999996,3.4059350000000004,-16.01325,4.1109969999999996e-05
168.0,79.07554999999999,53.46704,3.425065,-15.653595000000001,4.110774e-05
169.0,79.22585000000001,52.68906,3.4265950000000003,-15.413390000000001,4.0939345e-05
170.0,79.37469999999999,51.970510000000004,3.42658,-15.20188,4.1100625e-05
171.0,79.525025,51.196569999999994,3.425565,-14.98303,4.1285765e-05
172.0,79.67545,50.44479,3.40995,-14.835085000000001,4.1265475000000005e-05
173.0,79.82565,49.839535,3.401905,-14.69333,4.097787e-05
174.0,79.976675,49.27153,3.4039200000000003,-14.512685,4.1198585e-05
175.0,80.12685,48.721165,3.4079500000000005,-14.324765,4.1213395e-05
176.0,80.27565,48.24381,3.4180149999999996,-14.151565,4.09168e-05
177.0,80.426,47.90794,3.4230600000000004,-14.030355,4.0872074999999996e-05
178.0,80.57485,47.65919,3.4185299999999996,-13.964724999999998,4.0978285e-05
179.0,80.72485,47.488485,3.402425,-13.979745,4.094608e-05
180.0,80.8755,47.402390000000004,3.40744,-13.933869999999999,4.092222e-05
181.0,81.025725,47.401375,3.397875,-13.98291,4.1069875e-05
182.0,81.17632499999999,47.464825000000005,3.3999,-13.996064999999998,4.12242e-05
183.0,81.327575,47.545384999999996,3.4154899999999997,-13.95307,4.1061735e-05
184.0,81.47592499999999,47.656675,3.4109749999999996,-13.99869,4.1121425e-05
185.0,81.62585,47.814785,3.419525,-14.013055,4.09838e-05
186.0,81.775325,48.069069999999996,3.412995,-14.111455000000001,4.089259e-05
187.0,81.925075,48.321335,3.4114750000000003,-14.197235000000001,4.11405e-05
188.0,82.075925,48.640595000000005,3.4185299999999996,-14.263815,4.1049005e-05
189.0,82.22614999999999,49.02328,3.40894,-14.427395,4.1017995e-05
190.0,82.376925,49.229735,3.4205300000000003,-14.43337,4.1131110000000004e-05
191.0,82.52737499999999,49.489565,3.406935,-14.564025,4.1173225e-05
192.0,82.67637500000001,49.647175,3.416505,-14.571774999999999,4.105494e-05
193.0,82.82545,49.768029999999996,3.4210300000000005,-14.587895,4.1149575e-05
194.0,82.975775,49.79421,3.4220599999999997,-14.596799999999998,4.1157660000000005e-05
195.0,83.1254,49.820395000000005,3.416505,-14.629335000000001,4.1096965e-05
196.0,83.275725,49.80024,3.396875,-14.715495,4.099356e-05
197.0,83.426125,49.593779999999995,3.417525,-14.558035,4.1216965e-05
198.0,83.5765,49.29118,3.41952,-14.46662,4.124824e-05
199.0,83.72794999999999,49.00163,3.40291,-14.447555,4.120176e-05
200.0,83.87745,48.650670000000005,3.39082,-14.390620000000002,4.11891e-05
201.0,84.02605,48.191435,3.3797449999999998,-14.295715000000001,4.1188205e-05
202.0,84.17585,47.562015,3.39637,-14.04335,4.1281115e-05
203.0,84.32532499999999,46.86762,3.4024099999999997,-13.81141,4.1393735000000006e-05
204.0,84.475125,46.160135000000004,3.4094499999999996,-13.584190000000001,4.112486e-05
205.0,84.6255,45.29808,3.42054,-13.28235,4.1138205e-05
206.0,84.77685,44.60924,3.41601,-13.09555,4.108331e-05
207.0,84.92715,43.886655000000005,3.4114750000000003,-12.902314999999998,4.1258655e-05
208.0,85.07730000000001,43.256225,3.4114750000000003,-12.718665,4.1253545e-05
209.0,85.226,42.58651,3.384275,-12.614985,4.10571e-05
210.0,85.37575,41.97572,3.376735,-12.46372,4.1248935e-05
211.0,85.52495,41.38958,3.403925,-12.186915,4.1053604999999996e-05
212.0,85.674925,40.800934999999996,3.3993949999999997,-12.02918,4.0946915e-05
213.0,85.8255,40.226915,3.406955,-11.833515,4.108017e-05
214.0,85.975725,39.78631,3.397385,-11.732715,4.099714e-05
215.0,86.12620000000001,39.43232,3.36667,-11.732145,4.090905e-05
216.0,86.277575,39.197680000000005,3.368175,-11.6558,4.098886e-05
217.0,86.426275,39.02899,3.3611199999999997,-11.632525,4.1276715000000005e-05
218.0,86.57505,38.925765,3.3706899999999997,-11.562985000000001,4.123807e-05
219.0,86.724875,38.860805,3.37271,-11.533565,4.1278730000000004e-05
220.0,86.87455,38.89908,3.39536,-11.46901,4.1121905000000004e-05
221.0,87.0251,39.048629999999996,3.409975,-11.469415,4.1307365e-05
222.0,87.17555,39.29837,3.39486,-11.597005,4.0913455e-05
223.0,87.32652499999999,39.54712,3.39788,-11.662505,4.111446e-05
224.0,87.47760000000001,39.818535,3.3878,-11.777674999999999,4.1356040000000005e-05
225.0,87.627,40.19167,3.39033,-11.878865000000001,4.0995145e-05
226.0,87.77552499999999,40.459555,3.392345,-11.95695,4.1078065e-05
227.0,87.92635,40.797425,3.380745,-12.10439,4.1078735e-05
228.0,88.075075,41.136309999999995,3.3847949999999996,-12.186645,4.1135695e-05
229.0,88.224925,41.323125,3.388315,-12.236825,4.1203645e-05
230.0,88.375725,41.553255,3.39787,-12.267725,4.1154640000000003e-05
231.0,88.526325,41.69273,3.40694,-12.270725,4.1128695000000004e-05
232.0,88.67670000000001,41.828185000000005,3.410985,-12.289455,4.096028e-05
233.0,88.827275,41.913785000000004,3.38932,-12.401545,4.106857e-05
234.0,88.975725,41.906729999999996,3.3878,-12.403585,4.104768e-05
235.0,89.1255,41.80854,3.39637,-12.34411,4.1023839999999994e-05
236.0,89.27562499999999,41.650425,3.389315,-12.318085,4.1107749999999996e-05
237.0,89.42525,41.352325,3.3958500000000003,-12.21168,4.114737e-05
238.0,89.5762,40.994815,3.373195,-12.18463,4.1117999999999995e-05
239.0,89.726325,40.517955,3.39486,-11.962205,4.103632e-05
240.0,89.87655,40.060739999999996,3.3822699999999997,-11.867725,4.1210145e-05
241.0,90.02725000000001,39.498785,3.3716850000000003,-11.739230000000001,4.0983185e-05
242.0,90.175775,38.84066,3.3732300000000004,-11.535725,4.0972095e-05
243.0,90.325675,38.21829,3.3978900000000003,-11.272805,4.104552e-05
244.0,90.47517500000001,37.491175,3.387815,-11.0929,4.113091e-05
245.0,90.624325,36.765075,3.37825,-10.913805,4.1069245e-05
246.0,90.774975,36.139165000000006,3.3691900000000006,-10.75948,4.11385e-05
247.0,90.92597500000001,35.52786,3.3425,-10.661,4.1282575e-05
248.0,91.0764,34.80981,3.361125,-10.3901,4.1028275e-05
249.0,91.227375,34.17032,3.363635,-10.191320000000001,4.0937205e-05
250.0,91.377325,33.687400000000004,3.36565,-10.04185,4.0864789999999995e-05
251.0,91.5254,33.079635,3.391335,-9.78491,4.1041294999999996e-05
252.0,91.67580000000001,32.593720000000005,3.387315,-9.64628,4.0890130000000006e-05
253.0,91.82452500000001,32.182325,3.3983800000000004,-9.491975,4.099243e-05
254.0,91.9753,31.909915,3.404425,-9.39966,4.098441e-05
255.0,92.126,31.72965,3.3978650000000004,-9.363625,4.079515e-05
256.0,92.276375,31.615325000000002,3.3943600000000003,-9.339395,4.0912415e-05
257.0,92.427025,31.562464999999996,3.401415,-9.300725,4.1271845e-05
258.0,92.57755,31.629430000000003,3.3953800000000003,-9.336454999999999,4.108988e-05
259.0,92.72607500000001,31.766904999999998,3.3863100000000004,-9.40609,4.0774940000000004e-05
260.0,92.87559999999999,31.94769,3.415515,-9.375065000000001,4.0913025e-05
261.0,93.0251,32.165705,3.4079500000000005,-9.46024,4.0987385e-05
262.0,93.17452499999999,32.42806,3.41551,-9.516365,4.0851465000000004e-05
263.0,93.324925,32.759895,3.406445,-9.638025,4.078535e-05
264.0,93.474825,33.150124999999996,3.4240749999999998,-9.6981,4.1003820000000003e-05
265.0,93.625125,33.513705,3.4109749999999996,-9.846715,4.1026065e-05
266.0,93.776475,33.82185,3.418535,-9.921615,4.0956180000000005e-05
267.0,93.92564999999999,34.18793,3.3933550000000006,-10.098975,4.099971e-05
268.0,94.07455,34.412025,3.3943600000000003,-10.164125,4.115244e-05
269.0,94.225325,34.698025,3.38729,-10.26637,4.1158595e-05
270.0,94.375225,34.937709999999996,3.3792549999999997,-10.36208,4.11173e-05
271.0,94.525325,35.05854,3.374705,-10.414055000000001,4.1093615000000003e-05
272.0,94.67605,35.064595000000004,3.3913400000000005,-10.366475,4.098099e-05
273.0,94.826325,34.980515000000004,3.391335,-10.350875,4.112516e-05
274.0,94.97695,34.837489999999995,3.38427,-10.324414999999998,4.107539e-05
275.0,95.1268,34.626015,3.4220550000000003,-10.14091,4.093924e-05
276.0,95.27612500000001,34.32088,3.4210450000000003,-10.052764999999999,4.1044094999999995e-05
277.0,95.42605,34.001125,3.391335,-10.044039999999999,4.10039e-05
278.0,95.575,33.609375,3.3993949999999997,-9.908719999999999,4.104631e-05
279.0,95.724775,33.215095,3.39487,-9.804855,4.091809e-05
280.0,95.87565,32.669760000000004,3.39084,-9.660779999999999,4.1037775e-05
281.0,96.025775,32.10831,3.382775,-9.512385,4.0916090000000006e-05
282.0,96.176575,31.507074999999997,3.3737000000000004,-9.364485,4.0838685000000005e-05
283.0,96.327625,30.86961,3.3505499999999997,-9.23537,4.0887479999999996e-05
284.0,96.476,30.20543,3.3465000000000003,-9.047805,4.113636e-05
285.0,96.62559999999999,29.611759999999997,3.333435,-8.90392,4.0992915e-05
286.0,96.77565,29.03621,3.33292,-8.729980000000001,4.0889605e-05
287.0,96.925375,28.4395,3.326375,-8.56729,4.0673040000000005e-05
288.0,97.07595,27.8156,3.35056,-8.32311,4.093084e-05
289.0,97.22630000000001,27.296460000000003,3.35358,-8.15573,4.0888035e-05
290.0,97.3769,26.827675,3.3611150000000003,-7.99559,4.1021845e-05
291.0,97.52795,26.472665,3.3596200000000005,-7.89502,4.123653e-05
292.0,97.676575,26.149905,3.360615,-7.79747,4.0995890000000004e-05
293.0,97.8253,25.92684,3.366155,-7.719200000000001,4.0998420000000005e-05
294.0,97.974875,25.797935000000003,3.3661450000000004,-7.67894,4.1148219999999995e-05
295.0,98.1242,25.778295000000004,3.36918,-7.664960000000001,4.1114919999999996e-05
296.0,98.274,25.7954,3.371195,-7.666525,4.0971559999999996e-05
297.0,98.42435,25.910719999999998,3.371205,-7.70138,4.110481e-05
298.0,98.575225,26.091500000000003,3.3762250000000003,-7.74171,4.0937845e-05
299.0,98.725875,26.30097,3.37823,-7.80018,4.1131765e-05
300.0,98.87645,26.598055,3.37371,-7.8971800000000005,4.1059899999999996e-05
301.0,99.024275,26.912775,3.35911,-8.02534,4.0992435e-05
