time delay,stg_pos,V_in,V_out,ratio,DVD
-24.5,51.6755,-25.850285000000003,-42.421825,-0.609385575,3.642803e-05
-24.0,51.7565,-25.927485,-42.450345,-0.61080573,3.6517105e-05
-23.5,51.844224999999994,-25.957720000000002,-42.505755,-0.610729795,3.65064e-05
-23.0,51.900099999999995,-25.942595,-42.421835,-0.6115709899999999,3.662918e-05
-22.5,52.0044,-25.90733,-42.455394999999996,-0.610238955,3.6574405e-05
-22.0,52.047399999999996,-25.87545,-42.56451,-0.6079211250000001,3.6584525e-05
-21.5,52.156349999999996,-25.937565,-42.44029,-0.611183755,3.662622e-05
-21.0,52.197900000000004,-25.870415,-42.42352,-0.609840825,3.660045e-05
-20.5,52.305674999999994,-25.88049,-42.44704,-0.609735135,3.6678554999999995e-05
-20.0,52.34757499999999,-25.92747,-42.44366,-0.610877265,3.6684825e-05
-19.5,52.4567,-25.905635,-42.386565000000004,-0.611194125,3.6645095e-05
-19.0,52.498475,-25.87711,-42.401725,-0.61032715,3.6475635e-05
-18.5,52.606525,-25.877125,-42.42856,-0.609931275,3.6520235000000006e-05
-18.0,52.647425,-25.88551,-42.44701,-0.6098483349999999,3.650635e-05
-17.5,52.755700000000004,-25.87545,-42.460404999999994,-0.6094240049999999,3.651822e-05
-17.0,52.79752499999999,-25.860345000000002,-42.490635,-0.60863416,3.659041e-05
-16.5,52.90605000000001,-25.8368,-42.497355,-0.607999415,3.6633165000000005e-05
-16.0,52.94665,-25.915675,-42.458735000000004,-0.61040246,3.6752725e-05
-15.5,53.05597368421053,-25.9122,-42.44248947368421,-0.6105558052631579,3.66084947368421e-05
-15.0,53.094880952380954,-25.854971428571428,-42.40313333333333,-0.6097694666666668,3.647077142857143e-05
-14.5,53.206425,-25.875400000000003,-42.423505,-0.6099506,3.672139e-05
-14.0,53.24715,-25.887175000000003,-42.47052,-0.609563235,3.6526e-05
-13.5,53.357025,-25.91571,-42.473895,-0.61017775,3.6401795e-05
-13.0,53.397175000000004,-25.922424999999997,-42.467145,-0.610447605,3.6417935000000005e-05
-12.5,53.508050000000004,-25.893905,-42.453705,-0.6099518899999999,3.6372980000000004e-05
-12.0,53.54655,-25.840224999999997,-42.4319,-0.60900578,3.640305e-05
-11.5,53.659000000000006,-25.93085,-42.418465000000005,-0.61132533,3.6523895e-05
-11.0,53.697775,-25.88885,-42.4168,-0.61037915,3.6465015e-05
-10.5,53.808575,-25.915725000000002,-42.39498,-0.61132304,3.647543e-05
-10.0,53.8481,-25.86536,-42.396654999999996,-0.610104165,3.6407685e-05
-9.5,53.957575,-25.90566,-42.455415,-0.61020486,3.6433465e-05
-9.0,53.99657499999999,-25.91237,-42.450365,-0.610444245,3.6392360000000005e-05
-8.5,54.107899999999994,-25.855310000000003,-42.42347,-0.609476825,3.6509695e-05
-8.0,54.146975,-25.90063,-42.383215,-0.61107484,3.648626e-05
-7.5,54.2564,-25.893915,-42.477215,-0.609613065,3.6440595e-05
-7.0,54.29662499999999,-25.987905,-42.45036,-0.61221492,3.6601705e-05
-6.5,54.40689999999999,-25.877105,-42.47217,-0.6092971150000001,3.646872e-05
-6.0,54.446875,-25.79151,-42.420145000000005,-0.6080337250000001,3.6281755e-05
-5.5,54.556025,-25.888875000000002,-42.415095,-0.61039025,3.6419590000000005e-05
-5.0,54.596399999999996,-25.914065,-42.41512,-0.6109673449999999,3.658842e-05
-4.5,54.70675,-25.863695,-42.42686,-0.609616675,3.652119e-05
-4.0,54.74705,-25.789839999999998,-42.44198,-0.607681585,3.645265e-05
-3.5,54.856550000000006,-25.825105,-42.44031,-0.6085284,3.6489715e-05
-3.0,54.897175000000004,-25.89222,-42.442,-0.610060305,3.654735e-05
-2.5,55.006775000000005,-25.92747,-42.46548,-0.61057387,3.654083e-05
-2.0,55.047375,-26.04833,-42.44029,-0.613754865,3.653029e-05
-1.5,55.15595,-25.25444,-42.421814999999995,-0.5953621250000001,3.6507755e-05
-1.0,55.196524999999994,-5.81097555,-42.353025,-0.13467437499999999,3.6674785e-05
-0.5,55.306675,29.7626,-42.215395,0.70594918,3.6465195000000004e-05
0.0,55.34665,65.07092,-42.327815,1.536854055,3.6440295e-05
0.5,55.45632500000001,72.72809,-42.492315000000005,1.71174,3.62708e-05
1.0,55.495875,70.67868,-42.645095,1.6575,3.6375085e-05
1.5,55.606975,70.863315,-42.666915,1.6609500000000001,3.6447075000000004e-05
2.0,55.645799999999994,75.672135,-42.66689,1.773585,3.6527435e-05
2.5,55.75725,78.226755,-42.589704999999995,1.8368950000000002,3.656422e-05
3.0,55.79622500000001,76.130365,-42.5561,1.78907,3.653643e-05
3.5,55.907075,73.127555,-42.509105,1.7203399999999998,3.666633e-05
4.0,55.945550000000004,69.361075,-42.589665000000004,1.628895,3.682181e-05
4.5,56.0576,68.4161,-42.6669,1.60363,3.650188e-05
5.0,56.09589999999999,70.29429999999999,-42.584649999999996,1.6508600000000002,3.655134e-05
5.5,56.209342105263154,72.05404736842105,-42.62095789473684,1.6907157894736844,3.6689463157894735e-05
6.0,56.24483333333333,72.23653333333334,-42.58695238095238,1.696357142857143,3.6480714285714286e-05
6.5,56.35822499999999,71.30977,-42.613189999999996,1.6735600000000002,3.6666195e-05
7.0,56.3966,68.886095,-42.64168,1.6155950000000001,3.6671689999999996e-05
7.5,56.50765,67.432515,-42.593,1.58338,3.6573885000000005e-05
8.0,56.54617499999999,67.74135,-42.584649999999996,1.59089,3.666267e-05
8.5,56.65755,68.71654,-42.52592,1.616025,3.673926e-05
9.0,56.696175000000004,69.25867,-42.584665,1.6265699999999998,3.6558955000000004e-05
9.5,56.807525,69.35607999999999,-42.598065000000005,1.6283699999999999,3.6554265e-05
10.0,56.84589999999999,68.191175,-42.61651500000001,1.600225,3.661072e-05
10.5,56.956425,66.96759,-42.629975,1.57105,3.6613185e-05
11.0,56.996624999999995,66.685585,-42.66017,1.563305,3.653056e-05
11.5,57.10665,66.826595,-42.5964,1.56897,3.6461555e-05
12.0,57.146024999999995,67.18577,-42.569575,1.57841,3.6385305e-05
12.5,57.25857499999999,67.6423,-42.56951,1.589125,3.6553875e-05
13.0,57.2965,67.177385,-42.5796,1.5778,3.638016e-05
13.5,57.40835,66.806435,-42.58462,1.5689899999999999,3.6416870000000005e-05
14.0,57.445925,66.36166,-42.51415,1.5610950000000001,3.6559324999999996e-05
14.5,57.55924999999999,66.40772222222222,-42.53636111111111,1.5612944444444445,3.648785555555555e-05
15.0,57.592954545454546,66.4185818181818,-42.608895454545454,1.5589454545454544,3.6661686363636364e-05
15.5,57.707368421052635,66.90554210526317,-42.50080526315789,1.5743526315789473,3.646853684210526e-05
16.0,57.743904761904766,66.73754761904762,-42.62051904761905,1.566042857142857,3.6586395238095234e-05
16.5,57.85865,66.621805,-42.561125,1.56546,3.6537015e-05
17.0,57.895500000000006,66.141785,-42.65178,1.55085,3.660383e-05
17.5,58.00750000000001,65.962175,-42.59975,1.548545,3.6613985e-05
18.0,58.04517499999999,66.118265,-42.59133,1.5525499999999999,3.658387e-05
18.5,58.158024999999995,66.33479,-42.62323,1.556465,3.6699645e-05
19.0,58.1957,66.442215,-42.566175,1.56104,3.665063e-05
19.5,58.308074999999995,66.470775,-42.634995,1.55917,3.6610615e-05
20.0,58.346275000000006,66.245845,-42.588,1.55565,3.673257e-05
20.5,58.45890000000001,66.056175,-42.525905,1.553495,3.6589149999999995e-05
21.0,58.49679999999999,66.101515,-42.55444,1.55348,3.656757e-05
21.5,58.608349999999994,66.108205,-42.628319999999995,1.55091,3.660416e-05
22.0,58.64725,66.08972,-42.59807,1.5515750000000001,3.667835e-05
22.5,58.759299999999996,66.05616,-42.52086,1.55356,3.6625085e-05
23.0,58.797974999999994,65.95376999999999,-42.59134,1.548605,3.67294e-05
23.5,58.90839999999999,65.844705,-42.60645,1.5455299999999998,3.6722825e-05
24.0,58.9465,65.67181500000001,-42.58464,1.54227,3.681481e-05
24.5,59.058475,65.58617000000001,-42.640015,1.538265,3.6822904999999996e-05
25.0,59.096799999999995,65.559305,-42.61653,1.5385300000000002,3.684962e-05
25.5,59.206868421052626,65.60516842105262,-42.564405263157894,1.5414,3.664478947368421e-05
26.0,59.24442857142857,65.4299380952381,-42.567766666666664,1.5371904761904762,3.688119523809524e-05
26.5,59.35705,65.37806,-42.549400000000006,1.53665,3.6822255e-05
27.0,59.39615,65.18337,-42.564475,1.53152,3.6670365000000005e-05
27.5,59.506575,65.045715,-42.594705,1.5272299999999999,3.6737275e-05
28.0,59.546749999999996,64.89637,-42.564535,1.5247899999999999,3.6518115e-05
28.5,59.657275000000006,64.87117500000001,-42.571245,1.5239,3.644416e-05
29.0,59.697025,64.77378,-42.582975,1.521255,3.6609925e-05
29.5,59.807375,64.69493,-42.50072,1.522315,3.662114e-05
30.0,59.84717500000001,64.461645,-42.47554,1.517735,3.6758035e-05
30.5,59.958175000000004,64.23837999999999,-42.539305,1.51027,3.674036e-05
31.0,59.997699999999995,63.934595,-42.58296,1.50153,3.676252e-05
31.5,60.107275,63.761720000000004,-42.5343,1.49915,3.6758525e-05
32.0,60.147400000000005,63.707995,-42.55612,1.49712,3.6861270000000004e-05
32.5,60.25675,63.432714999999995,-42.54099,1.491185,3.6709865e-05
33.0,60.296725,63.120505,-42.557775,1.4832800000000002,3.6610944999999995e-05
33.5,60.406625,63.070185,-42.60983,1.48034,3.6622055e-05
34.0,60.446675000000006,62.862030000000004,-42.551085,1.477525,3.6575145000000005e-05
34.5,60.5561,62.660635,-42.525909999999996,1.47368,3.6541245e-05
35.0,60.5963,62.437355000000004,-42.54773,1.467565,3.6457785e-05
35.5,60.706025,62.210775,-42.588,1.46085,3.647538e-05
36.0,60.746849999999995,62.08660999999999,-42.58462,1.4581149999999998,3.656562e-05
36.5,60.857425,61.78278,-42.564495,1.45168,3.6590905e-05
37.0,60.896975,61.593125,-42.6031,1.44591,3.6739889999999996e-05
37.5,61.007450000000006,61.346394999999994,-42.59298,1.440415,3.6645065e-05
38.0,61.046749999999996,61.228865,-42.645055,1.435925,3.660974e-05
38.5,61.158699999999996,60.95862999999999,-42.54601,1.4329100000000001,3.6577475e-05
39.0,61.197375,60.708569999999995,-42.52084,1.4278650000000002,3.6639695e-05
39.5,61.30825,60.47861,-42.455405,1.42464,3.6463989999999994e-05
40.0,61.347699999999996,60.25538,-42.49906,1.41793,3.642051e-05
40.5,61.457100000000004,60.176480000000005,-42.551095000000004,1.4143700000000001,3.662554e-05
41.0,61.4966,59.88274,-42.571195,1.40679,3.640599e-05
41.5,61.607575,59.728305,-42.608135,1.40194,3.649692e-05
42.0,61.647475,59.54872,-42.57122,1.39896,3.6525465000000006e-05
42.5,61.756475,59.253325,-42.579635,1.39176,3.6490464999999997e-05
43.0,61.79667500000001,59.009935,-42.59134,1.3856199999999999,3.6633335e-05
43.5,61.906724999999994,58.848800000000004,-42.59303,1.381735,3.6759145e-05
44.0,61.946749999999994,58.67593000000001,-42.50404,1.38062,3.670928e-05
44.5,62.056799999999996,58.524885,-42.52082,1.376525,3.6498794999999997e-05
45.0,62.09665,58.378859999999996,-42.556065000000004,1.371945,3.650048e-05
45.5,62.20745000000001,58.242875000000005,-42.581265,1.36791,3.6415065e-05
46.0,62.247325000000004,58.05821999999999,-42.507445000000004,1.365925,3.6676495e-05
46.5,62.35767499999999,57.81319499999999,-42.562799999999996,1.35842,3.6890355e-05
47.0,62.397625000000005,57.635265000000004,-42.579615000000004,1.35372,3.687088e-05
47.5,62.508425,57.57823499999999,-42.616525,1.3511900000000001,3.6814465e-05
48.0,62.547450000000005,57.512739999999994,-42.512465,1.3530000000000002,3.666551e-05
48.5,62.656825000000005,57.383515,-42.50743,1.350075,3.6644580000000003e-05
49.0,62.696524999999994,57.39524,-42.55946,1.3487149999999999,3.6767009999999996e-05
49.5,62.807500000000005,57.499325,-42.541005,1.351725,3.6607645e-05
50.0,62.846799999999995,57.895435,-42.629945,1.358205,3.6594805000000004e-05
50.5,62.956975,58.241205,-42.60479,1.36715,3.6773055e-05
51.0,62.99634999999999,58.97972,-42.54602,1.386375,3.674392e-05
51.5,63.10699999999999,59.909625000000005,-42.564499999999995,1.4076499999999998,3.667112e-05
52.0,63.1463,60.836125,-42.609805,1.42786,3.67696e-05
52.5,63.257175,61.190250000000006,-42.655145,1.43464,3.6770285e-05
53.0,63.29594999999999,60.903245000000005,-42.606485,1.42953,3.677836e-05
53.5,63.4077,60.389635,-42.59302,1.41799,3.6709205e-05
54.0,63.446375,59.696439999999996,-42.519165,1.40418,3.6715210000000005e-05
54.5,63.558475,59.330525,-42.470530000000004,1.39712,3.6661940000000005e-05
55.0,63.595825000000005,59.26338500000001,-42.54269,1.39311,3.6701034999999995e-05
55.5,63.70890000000001,59.30367,-42.53594,1.39431,3.67728e-05
56.0,63.74715,59.150940000000006,-42.47889,1.392595,3.680713e-05
56.5,63.85895000000001,58.941134999999996,-42.472175,1.38782,3.682393e-05
57.0,63.89645,58.474495000000005,-42.519185,1.3753199999999999,3.6850295e-05
57.5,64.00795,58.200895,-42.589685,1.36665,3.69955e-05
58.0,64.046475,57.851795,-42.52421,1.36055,3.6792805000000005e-05
58.5,64.157825,57.803105,-42.51918,1.35955,3.6781385e-05
59.0,64.19615,57.668814999999995,-42.478905000000005,1.357705,3.6854105000000004e-05
59.5,64.307125,57.58660999999999,-42.5108,1.354755,3.6748119999999996e-05
60.0,64.34575,57.427125000000004,-42.544375,1.349915,3.6597510000000004e-05
60.5,64.4573,57.282804999999996,-42.502404999999996,1.3478999999999999,3.6569214999999996e-05
61.0,64.4967,57.108230000000006,-42.525895000000006,1.3430149999999998,3.657643e-05
61.5,64.60805,57.136754999999994,-42.53093,1.3435650000000001,3.671843e-05
62.0,64.6469,57.237480000000005,-42.48225,1.347485,3.6723845000000005e-05
62.5,64.75767499999999,57.383515,-42.574580000000005,1.3479649999999999,3.678538e-05
63.0,64.79690000000001,57.35328500000001,-42.527550000000005,1.34877,3.6808095000000004e-05
63.5,64.908475,57.193830000000005,-42.502385,1.345805,3.670672e-05
64.0,64.947575,57.088075,-42.54267,1.34197,3.688174e-05
64.5,65.057525,57.071299999999994,-42.569545,1.340765,3.675664e-05
65.0,65.09752499999999,57.124985,-42.515840000000004,1.34373,3.668665e-05
65.5,65.20677500000001,57.037735,-42.50742,1.34194,3.6721764999999996e-05
66.0,65.246625,57.00082,-42.512475,1.3409,3.6614695e-05
66.5,65.357125,56.82794,-42.51917,1.336645,3.669729e-05
67.0,65.396725,56.636604999999996,-42.534285,1.33168,3.693404e-05
67.5,65.50685,56.48886,-42.549375000000005,1.32769,3.666529e-05
68.0,65.54625,56.230395,-42.539300000000004,1.321965,3.6874424999999996e-05
68.5,65.65729999999999,56.091089999999994,-42.54436,1.318525,3.686315e-05
69.0,65.69655,55.928275,-42.50911,1.3157400000000001,3.686888e-05
69.5,65.806975,55.795675,-42.497385,1.313,3.667411e-05
70.0,65.846075,55.54389,-42.53601,1.30591,3.663125e-05
70.5,65.95815,55.46331,-42.564499999999995,1.303185,3.6655835000000005e-05
71.0,65.996775,55.25852999999999,-42.569565,1.2981950000000002,3.6569119999999997e-05
71.5,66.10805,55.08063,-42.510795,1.2957649999999998,3.6707285e-05
72.0,66.14685,55.005129999999994,-42.53432,1.293275,3.674231e-05
72.5,66.259475,54.88929,-42.562830000000005,1.289705,3.674458e-05
73.0,66.29625,54.85575,-42.562785000000005,1.28895,3.6666835e-05
73.5,66.4084,54.793634999999995,-42.55946,1.287555,3.6662825e-05
74.0,66.4456,54.699635,-42.50574,1.286995,3.6633595e-05
74.5,66.5582,54.622405,-42.51579,1.2848549999999999,3.6696279999999995e-05
75.0,66.596275,54.692910000000005,-42.514134999999996,1.28658,3.6483565e-05
75.5,66.70815,54.662695,-42.561144999999996,1.28447,3.652692e-05
76.0,66.74640000000001,54.6056,-42.52589,1.284155,3.665647e-05
76.5,66.85685,54.68786,-42.507435,1.28666,3.6637730000000005e-05
77.0,66.896625,54.612345000000005,-42.53093,1.2841749999999998,3.659346e-05
77.5,67.006625,54.53848000000001,-42.527555,1.282535,3.6619545e-05
78.0,67.04675,54.55863000000001,-42.49402,1.28399,3.673125e-05
78.5,67.15705,54.56199,-42.54773,1.2824550000000001,3.676447e-05
79.0,67.19725,54.37232,-42.569535,1.27732,3.659211e-05
79.5,67.306825,54.278315,-42.495695,1.277345,3.658998e-05
80.0,67.34717500000001,54.102075,-42.512495,1.272735,3.663891e-05
80.5,67.457525,53.969505000000005,-42.468795,1.27094,3.6648995e-05
81.0,67.497025,53.872130000000006,-42.551045,1.26616,3.6820295e-05
81.5,67.6073,53.702615,-42.588004999999995,1.261075,3.6589685e-05
82.0,67.64615,53.502869999999994,-42.57624,1.2567249999999999,3.6500725e-05
82.5,67.75675,53.39379,-42.56785,1.254435,3.664193e-05
83.0,67.795675,53.26454,-42.44867,1.254925,3.675583e-05
83.5,67.907475,53.08999,-42.482254999999995,1.2498049999999998,3.6791599999999995e-05
84.0,67.945425,53.054715,-42.49401,1.24863,3.6800645e-05
84.5,68.05705,52.948969999999996,-42.54605,1.2446,3.659853e-05
85.0,68.095375,52.891909999999996,-42.552745,1.24308,3.677559e-05
85.5,68.207675,52.806295,-42.54097,1.24141,3.683213e-05
86.0,68.24562499999999,52.8298,-42.524205,1.24247,3.679093e-05
86.5,68.3578,52.80968,-42.54099,1.24153,3.682468e-05
87.0,68.39565,52.843245,-42.51075,1.24319,3.6810715e-05
87.5,68.50855,52.83315,-42.497315,1.24332,3.685794e-05
88.0,68.5452,52.91539,-42.530895,1.24425,3.684954e-05
88.5,68.65927500000001,52.932185000000004,-42.497335,1.2456450000000001,3.662845e-05
89.0,68.695525,52.935535,-42.535935,1.244605,3.660798e-05
89.5,68.81021052631579,53.016657894736845,-42.509626315789475,1.247278947368421,3.665577894736842e-05
90.0,68.84433333333334,53.00287142857143,-42.5485761904762,1.2458333333333333,3.647698095238095e-05
90.5,68.9579,52.96912999999999,-42.55444,1.24481,3.6537875e-05
91.0,68.99517499999999,52.86,-42.44534,1.245505,3.667123e-05
91.5,69.1088,52.80627,-42.480560000000004,1.243215,3.673625e-05
92.0,69.14525,52.791185,-42.505790000000005,1.242095,3.6683985e-05
92.5,69.25755000000001,52.640165,-42.45205,1.2401,3.6786625e-05
93.0,69.295125,52.54613500000001,-42.448685,1.237965,3.652278e-05
93.5,69.407725,52.529354999999995,-42.480565,1.23664,3.6464784999999996e-05
94.0,69.44482500000001,52.285995,-42.458755000000004,1.231565,3.637706e-05
94.5,69.55830555555556,52.22836111111111,-42.5326,1.2280444444444445,3.6630916666666665e-05
95.0,69.59202272727272,52.2248,-42.49600454545455,1.229059090909091,3.640184090909091e-05
95.5,69.70816666666666,52.12580555555556,-42.49346666666666,1.226761111111111,3.661360555555555e-05
96.0,69.74352272727273,51.91963181818182,-42.52804090909091,1.220931818181818,3.653929090909091e-05
96.5,69.85845,51.75727500000001,-42.44366,1.219585,3.6658109999999995e-05
97.0,69.89695,51.636415,-42.421859999999995,1.2173450000000001,3.645896e-05
97.5,70.0078,51.62803,-42.48395,1.215355,3.6408684999999995e-05
98.0,70.046775,51.646505000000005,-42.443645000000004,1.216875,3.6454125e-05
98.5,70.15752631578947,51.6314947368421,-42.47961052631579,1.2154894736842106,3.6484615789473685e-05
99.0,70.1944761904762,51.64569047619048,-42.54697142857143,1.213942857142857,3.651681904761905e-05
99.5,70.306975,51.74218499999999,-42.50408,1.217415,3.652117e-05
100.0,70.34639999999999,51.804245,-42.441955,1.2206949999999999,3.642184e-05
100.5,70.45727500000001,51.888189999999994,-42.46213,1.222135,3.643072e-05
101.0,70.49617500000001,51.89489,-42.50407,1.221055,3.648158e-05
101.5,70.606825,52.000620000000005,-42.42183,1.225915,3.6485145000000004e-05
102.0,70.646025,52.05435,-42.50913,1.224675,3.6431195e-05
102.5,70.757525,52.153380000000006,-42.539335,1.22612,3.6421925e-05
103.0,70.79625,52.08792,-42.525915000000005,1.224915,3.643281e-05
103.5,70.908525,51.99895,-42.50913,1.2233399999999999,3.6496535e-05
104.0,70.94647499999999,51.864675,-42.5276,1.21963,3.652702e-05
104.5,71.05862499999999,51.802555,-42.517495000000004,1.218475,3.653022e-05
105.0,71.09655000000001,51.683395,-42.57455,1.2140650000000002,3.6164765e-05
105.5,71.20933333333333,51.54204444444444,-42.562472222222226,1.2110833333333333,3.625311111111111e-05
106.0,71.24359090909091,51.52748181818181,-42.52650454545455,1.2117909090909091,3.617300454545454e-05
106.5,71.35907894736842,51.41591052631579,-42.49548947368421,1.2100157894736843,3.634965263157895e-05
107.0,71.39409523809525,51.21406666666667,-42.45429523809524,1.2064523809523808,3.648514285714286e-05
107.5,71.50818421052632,51.142068421052635,-42.518452631578945,1.2029473684210528,3.639574210526316e-05
108.0,71.54459523809524,51.00626666666666,-42.44786190476191,1.2016809523809524,3.662499523809524e-05
108.5,71.658425,50.865995,-42.504084999999996,1.19679,3.6454465e-05
109.0,71.69579999999999,50.748495,-42.502395,1.19413,3.6439965e-05
109.5,71.807675,50.67801,-42.49232,1.1927400000000001,3.6429385e-05
110.0,71.84595,50.66627,-42.48392,1.192685,3.6431445e-05
110.5,71.957525,50.723304999999996,-42.488985,1.193885,3.6534305e-05
111.0,71.99665,50.674665,-42.470524999999995,1.193245,3.649528e-05
