time delay,stg_pos,V_in,V_out,ratio,DVD
-24.5,51.6755,-1.478875,-40.610775000000004,-0.036417145,3.581433e-05
-24.0,51.756975,-1.56779,-40.661125,-0.03856252,3.5882705e-05
-23.5,51.8427,-1.55269,-40.620845,-0.0382313,3.599205e-05
-23.0,51.900975,-1.53593,-40.602385,-0.037829485,3.615412e-05
-22.5,52.0029,-1.59968,-40.538595,-0.039465235,3.605675e-05
-22.0,52.04705,-1.556025,-40.62419,-0.03830468,3.595573e-05
-21.5,52.157000000000004,-1.556075,-40.617495000000005,-0.03832181,3.5809515e-05
-21.0,52.19712500000001,-1.509075,-40.568785000000005,-0.037209729999999996,3.591682e-05
-20.5,52.307275000000004,-1.48891,-40.55538,-0.036725605,3.5871555e-05
-20.0,52.347474999999996,-1.44192,-40.59061,-0.035538805,3.577726e-05
-19.5,52.45805,-1.45534,-40.60236,-0.03584518,3.5795054999999996e-05
-19.0,52.498275,-1.47045,-40.585570000000004,-0.036229,3.5787055e-05
-18.5,52.60657894736842,-1.4912947368421055,-40.571457894736845,-0.036759352631578944,3.5728999999999996e-05
-18.0,52.64592857142857,-1.5203238095238096,-40.67510476190476,-0.037386109523809524,3.566078095238095e-05
-17.5,52.756499999999996,-1.539275,-40.58894,-0.03793147,3.5602194999999996e-05
-17.0,52.797625,-1.564435,-40.58559,-0.038556255,3.5593775e-05
-16.5,52.9064,-1.547675,-40.553685,-0.03817585,3.5623330000000004e-05
-16.0,52.947075,-1.478815,-40.593975,-0.036438105,3.5644634999999997e-05
-15.5,53.05615,-1.4939500000000001,-40.57385,-0.03682349,3.5816279999999997e-05
-15.0,53.09689999999999,-1.530865,-40.513400000000004,-0.037795545,3.5748345e-05
-14.5,53.206275000000005,-1.519115,-40.516765,-0.037501795,3.589272e-05
-14.0,53.24715,-1.534225,-40.513395,-0.037873635,3.5680115e-05
-13.5,53.356275,-1.539245,-40.578875,-0.03793894,3.573196e-05
-13.0,53.39765,-1.54264,-40.494965,-0.0381026,3.587263e-05
-12.5,53.50765,-1.48391,-40.5,-0.03665505,3.5684539999999996e-05
-12.0,53.547574999999995,-1.49059,-40.52013,-0.036793205,3.596671e-05
-11.5,53.657725000000006,-1.49057,-40.548665,-0.036763915,3.6040034999999996e-05
-11.0,53.69755,-1.47886,-40.562075,-0.036462005000000006,3.5909445e-05
-10.5,53.807399999999994,-1.4989750000000002,-40.484865,-0.037034460000000005,3.5915280000000004e-05
-10.0,53.8471,-1.5275349999999999,-40.505015,-0.03771272,3.5871475e-05
-9.5,53.95722500000001,-1.468785,-40.61077,-0.03616956,3.5915490000000005e-05
-9.0,53.99595000000001,-1.5090400000000002,-40.49661,-0.037268010000000004,3.5996265e-05
-8.5,54.108025,-1.4973100000000001,-40.501644999999996,-0.036975605,3.595992e-05
-8.0,54.146474999999995,-1.4922900000000001,-40.50333,-0.03684327,3.591745e-05
-7.5,54.256575,-1.51578,-40.543605,-0.037390975,3.6024745e-05
-7.0,54.2968,-1.51913,-40.56711,-0.03745598,3.605889e-05
-6.5,54.406975,-1.45871,-40.609089999999995,-0.035920679999999997,3.593697e-05
-6.0,54.4461,-1.431865,-40.570475,-0.035298225,3.59023e-05
-5.5,54.557024999999996,-1.49227,-40.53691,-0.03682642,3.590324e-05
-5.0,54.596399999999996,-1.5191000000000001,-40.538585,-0.037480995,3.576896e-05
-4.5,54.708574999999996,-1.497315,-40.47144,-0.03700682,3.5803e-05
-4.0,54.746925,-1.504025,-40.53691,-0.037113565,3.5858495e-05
-3.5,54.85785,-1.51241,-40.494925,-0.03736067,3.579336e-05
-3.0,54.897125,-1.46876,-40.51845,-0.036244885,3.5821515e-05
-2.5,55.00802631578947,-1.5177832631578947,-40.504342105263156,-0.0374617947368421,3.577412631578947e-05
-2.0,55.04573809523809,-0.15197195238095237,-40.5136619047619,-0.003823014285714286,3.581182380952381e-05
-1.5,55.1567,3.90065575,-40.62923,0.09616297,3.565555e-05
-1.0,55.196625000000004,134.405175,-41.129395,3.242667625,3.5696785e-05
-0.5,55.307224999999995,297.40005,-41.78568,7.10151,3.571365e-05
0.0,55.34675,396.5088,-42.33793,9.366895,3.589489e-05
0.5,55.455600000000004,373.20320000000004,-42.4504,8.791515,3.5908095e-05
1.0,55.49589999999999,331.3153,-42.653455,7.769410000000001,3.5762915e-05
1.5,55.60675,326.44605,-42.671929999999996,7.65096,3.581854e-05
2.0,55.645825,334.12510000000003,-42.571195,7.850745000000001,3.582148e-05
2.5,55.7572,340.48985000000005,-42.56619,8.00048,3.5586005e-05
3.0,55.795500000000004,330.94265,-42.389935,7.80882,3.5821675e-05
3.5,55.907875000000004,319.4317,-42.431905,7.5294799999999995,3.58203e-05
4.0,55.946299999999994,309.32565,-42.391615,7.2975200000000005,3.560734e-05
4.5,56.057950000000005,304.78355,-42.413435,7.187015,3.5808295e-05
5.0,56.095275,309.5874,-42.369780000000006,7.308005,3.594534e-05
5.5,56.20925,314.58085,-42.307705,7.436445000000001,3.5898745e-05
6.0,56.245875,311.87174999999996,-42.29092,7.375629999999999,3.5785880000000004e-05
6.5,56.359024999999995,307.90225,-42.243925000000004,7.289619999999999,3.5847065e-05
7.0,56.395075,300.78045000000003,-42.24557,7.120534999999999,3.574133e-05
7.5,56.507763157894736,296.83505263157895,-42.281705263157896,7.021363157894737,3.5706989473684214e-05
8.0,56.543547619047615,297.66171428571425,-42.26882857142857,7.043042857142857,3.560553333333334e-05
8.5,56.657775,299.92945,-42.245565,7.1005650000000005,3.5683245e-05
9.0,56.69515,300.37600000000003,-42.171730000000004,7.12354,3.5874635e-05
9.5,56.80713157894736,299.2821578947368,-42.20927368421053,7.0912578947368425,3.591253684210526e-05
10.0,56.84395238095238,295.39019047619047,-42.23365714285714,6.994880952380953,3.590977619047619e-05
10.5,56.956725000000006,291.7989,-42.228825,6.910635000000001,3.6050474999999995e-05
11.0,56.996075,291.24850000000004,-42.180115,6.905800000000001,3.5946554999999996e-05
11.5,57.107925,291.7453,-42.161625,6.920455,3.5827095e-05
12.0,57.14705,292.4117,-42.15491,6.9373450000000005,3.5763475e-05
12.5,57.257875,292.31415000000004,-42.156594999999996,6.935055,3.584207e-05
13.0,57.296375,290.73474999999996,-42.126395,6.902330000000001,3.5890625e-05
13.5,57.408611111111114,288.4100555555556,-42.118605555555554,6.8485,3.5844266666666665e-05
14.0,57.443954545454545,287.1421818181818,-42.23354090909091,6.799586363636364,3.574035909090909e-05
14.5,57.559000000000005,286.89279999999997,-42.230489999999996,6.794375,3.5779e-05
15.0,57.596675000000005,286.9466,-42.186835,6.802429999999999,3.589281e-05
15.5,57.70762499999999,286.94325,-42.128065,6.811695,3.5794295e-05
16.0,57.7456,285.67755,-42.102895000000004,6.78586,3.595552e-05
16.5,57.857725,284.72765,-42.149905000000004,6.7560150000000005,3.5938365e-05
17.0,57.896525,284.0092,-42.14152,6.74029,3.577757e-05
17.5,58.006875,283.52575,-42.124745000000004,6.731685000000001,3.5761975e-05
18.0,58.045725000000004,284.30785000000003,-42.151595,6.74564,3.580724e-05
18.5,58.156349999999996,285.1338,-42.15829,6.76425,3.57716e-05
19.0,58.19494999999999,286.6495,-42.21033,6.7917000000000005,3.5860705e-05
19.5,58.30715,288.281,-42.242235,6.825125,3.592224e-05
20.0,58.345299999999995,289.9259,-42.27075,6.859430000000001,3.5956975e-05
20.5,58.458175000000004,290.78685,-42.20194,6.8909199999999995,3.5977295e-05
21.0,58.494275,289.25445,-42.207,6.853985,3.612911e-05
21.5,58.607949999999995,287.05735,-42.107955,6.8178600000000005,3.608748e-05
22.0,58.645275000000005,284.24075000000005,-42.133134999999996,6.747280000000001,3.6212425e-05
22.5,58.75897222222222,282.60799999999995,-42.155883333333335,6.704533333333334,3.590175e-05
23.0,58.79331818181818,282.21068181818185,-42.090095454545455,6.7054,3.591916818181818e-05
23.5,58.908,282.75205,-42.111315000000005,6.71511,3.5845485e-05
24.0,58.94595,282.49695,-42.102935,6.710315,3.594193e-05
24.5,59.057725000000005,281.4712,-42.10462,6.685849999999999,3.5896805e-05
25.0,59.095725,279.5713,-42.134815,6.635724999999999,3.592205e-05
25.5,59.2075,278.59270000000004,-42.10967,6.616474999999999,3.5818314999999997e-05
26.0,59.24612499999999,278.04724999999996,-42.13985,6.59893,3.5732195e-05
26.5,59.357524999999995,277.8205,-42.101265,6.59948,3.577044e-05
27.0,59.395399999999995,277.6159,-42.086130000000004,6.59708,3.5704145e-05
27.5,59.50727500000001,277.11905,-42.076049999999995,6.586965000000001,3.5908910000000005e-05
28.0,59.54655,275.981,-42.084469999999996,6.558490000000001,3.5872335e-05
28.5,59.657349999999994,275.26935,-42.039135,6.548309999999999,3.602163e-05
29.0,59.696524999999994,274.68359999999996,-41.955205,6.547635,3.597118e-05
29.5,59.807842105263155,274.697,-42.00787368421052,6.539742105263158,3.606255789473684e-05
30.0,59.84499999999999,274.2511428571429,-42.097809523809524,6.51542380952381,3.596258571428571e-05
30.5,59.958749999999995,274.0123888888889,-42.02908333333333,6.520527777777778,3.585951111111111e-05
31.0,59.994136363636365,273.5680454545455,-42.033654545454546,6.508804545454546,3.604571818181818e-05
31.5,60.108000000000004,272.8087,-41.96866,6.50115,3.5858305e-05
32.0,60.147025,272.06685,-41.982074999999995,6.4812650000000005,3.5858720000000004e-05
32.5,60.2577,271.69255,-41.963605,6.47508,3.5756435e-05
33.0,60.29622500000001,271.08835,-42.020675,6.452,3.5835135e-05
33.5,60.407475,270.88855,-42.01399,6.44838,3.583999e-05
34.0,60.44562499999999,270.34975,-41.980445,6.440729999999999,3.5781810000000004e-05
34.5,60.557275000000004,269.86135,-42.02572,6.422285,3.571413e-05
35.0,60.595775,269.2672,-42.01563,6.40968,3.5781605000000003e-05
35.5,60.7077,268.95169999999996,-41.938415,6.413880000000001,3.5873645e-05
36.0,60.746225,268.7368,-42.039159999999995,6.39342,3.5907245e-05
36.5,60.857524999999995,268.2718,-42.050905,6.3806899999999995,3.576173e-05
37.0,60.896474999999995,267.77995,-41.97032,6.38086,3.5868015e-05
37.5,61.00763157894737,267.5695789473684,-41.960184210526315,6.377373684210527,3.5857152631578945e-05
38.0,61.04478571428571,267.5644761904762,-42.051457142857146,6.3634619047619045,3.5853214285714285e-05
38.5,61.15855263157895,267.0607368421053,-41.98845263157895,6.3611578947368415,3.5741973684210525e-05
39.0,61.19526190476191,266.7938095238095,-41.963523809523814,6.358414285714286,3.5860019047619045e-05
39.5,61.3088,266.5229,-42.02233,6.343005,3.596167e-05
40.0,61.347325,265.9337,-41.990449999999996,6.33386,3.584675e-05
40.5,61.45775,265.1784,-41.993815,6.31558,3.586436e-05
41.0,61.49657499999999,264.18965,-42.03241,6.286325,3.574067e-05
41.5,61.60815,263.8591,-42.01897,6.2802500000000006,3.5992935e-05
42.0,61.646825,263.83050000000003,-41.955185,6.289015,3.6045735e-05
42.5,61.75705000000001,264.34235,-41.90318,6.30917,3.583366e-05
43.0,61.797124999999994,264.59085,-41.968665,6.305,3.5759805e-05
43.5,61.90665,264.324,-41.89479,6.30978,3.575365e-05
44.0,61.947075,263.20955,-41.88638,6.28453,3.568757e-05
44.5,62.055600000000005,262.01455,-41.940115,6.248265,3.5723775e-05
45.0,62.09712499999999,261.2725,-41.8562,6.242625,3.5637525e-05
45.5,62.20585,261.30775,-41.8411,6.2457650000000005,3.5769755e-05
46.0,62.24735,261.58984999999996,-41.864575,6.24911,3.583954e-05
46.5,62.3566,261.709,-41.814235000000004,6.2595149999999995,3.579657e-05
47.0,62.397625000000005,260.56435,-41.77731,6.23794,3.5845894999999995e-05
47.5,62.507625,260.07595000000003,-41.763864999999996,6.22808,3.5774005e-05
48.0,62.546974999999996,259.40455000000003,-41.81255,6.20448,3.5858065e-05
48.5,62.657775,258.89430000000004,-41.884725,6.181825,3.5661965e-05
49.0,62.695550000000004,259.0335,-41.83604,6.192245,3.5835405e-05
49.5,62.807425,259.17115,-41.8109,6.1992899999999995,3.586278e-05
50.0,62.8455,258.7632,-41.8243,6.1875,3.5773785e-05
50.5,62.95722500000001,258.23785,-41.773935,6.182370000000001,3.584198e-05
51.0,62.994975,257.30455,-41.76049,6.16203,3.588908e-05
51.5,63.10755,256.97905000000003,-41.834360000000004,6.1433349999999995,3.5907555e-05
52.0,63.145475,256.87835,-41.837715,6.1405650000000005,3.585576e-05
52.5,63.257325,257.02775,-41.76891,6.154055,3.5773054999999995e-05
53.0,63.29517499999999,256.9171,-41.777305,6.150305,3.5792185e-05
53.5,63.407275000000006,256.8465,-41.782335,6.1479550000000005,3.584517e-05
54.0,63.445175000000006,256.45875,-41.787400000000005,6.137925,3.588997e-05
54.5,63.5579,255.93675,-41.76892,6.12801,3.576927e-05
55.0,63.5948,255.72685,-41.830985,6.113925,3.585439e-05
55.5,63.708524999999995,255.6513,-41.81422,6.11462,3.5822235e-05
56.0,63.745225000000005,255.62115,-41.896474999999995,6.10178,3.5932485e-05
56.5,63.858075,255.59094999999996,-41.839405,6.10925,3.60093e-05
57.0,63.895675000000004,255.02190000000002,-41.84948,6.094225,3.6003115e-05
57.5,64.006675,254.68784999999997,-41.8478,6.08663,3.5918105e-05
58.0,64.044975,254.67289999999997,-41.919959999999996,6.07576,3.585314e-05
58.5,64.157125,254.30194999999998,-41.891425,6.07106,3.5820225e-05
59.0,64.19550000000001,253.9813,-41.804175,6.07607,3.604644e-05
59.5,64.306725,253.63395,-41.76219,6.073964999999999,3.5956065e-05
60.0,64.3458,253.06990000000002,-41.758835,6.060875,3.6033015e-05
60.5,64.4562,252.53785,-41.85617,6.0341949999999995,3.592071e-05
61.0,64.495925,251.71550000000002,-41.79577,6.023149999999999,3.5832639999999996e-05
61.5,64.60657499999999,251.28905,-41.78734,6.01415,3.594847e-05
62.0,64.6465,250.9719,-41.809195,6.00343,3.5962105000000006e-05
62.5,64.75732500000001,250.6228,-41.780655,5.999015,3.603891e-05
63.0,64.79560000000001,250.2316,-41.775619999999996,5.99039,3.5837835e-05
63.5,64.90845,250.18465,-41.745405,5.99375,3.5906415e-05
64.0,64.9466,249.83544999999998,-41.76219,5.98294,3.5965035e-05
64.5,65.05857499999999,249.4662,-41.770575,5.972825,3.5895765e-05
65.0,65.095975,249.21954999999997,-41.79407,5.96355,3.5877215e-05
65.5,65.20705000000001,249.10185,-41.80079,5.9598700000000004,3.5984534999999996e-05
66.0,65.2461,248.98944999999998,-41.802465,5.95679,3.594779e-05
66.5,65.35755,248.83675,-41.884744999999995,5.941545,3.5888755e-05
67.0,65.395625,248.6857,-41.849475,5.942895,3.596186e-05
67.5,65.5064,248.6606,-41.825965000000004,5.9456299999999995,3.580333e-05
68.0,65.545325,248.5851,-41.814229999999995,5.945465,3.5791955e-05
68.5,65.65632500000001,248.21239999999997,-41.790724999999995,5.940025,3.6006465e-05
69.0,65.69575,247.95715,-41.799144999999996,5.93245,3.5768945e-05
69.5,65.80655,247.51934999999997,-41.73198,5.93161,3.5736625e-05
70.0,65.845875,247.31275,-41.846115,5.910410000000001,3.5789865e-05
70.5,65.9576,247.11804999999998,-41.81759,5.909805,3.5923525e-05
71.0,65.994925,246.83274999999998,-41.839389999999995,5.90006,3.5823505e-05
71.5,66.107425,246.42815000000002,-41.841095,5.88996,3.581643e-05
72.0,66.14507499999999,246.05884999999998,-41.78402,5.889390000000001,3.57024e-05
72.5,66.25905,245.60909999999998,-41.802465,5.876025,3.562074e-05
73.0,66.2954,245.26345,-41.738695,5.876575,3.562099e-05
73.5,66.407975,244.973,-41.730290000000004,5.87082,3.5671525e-05
74.0,66.446275,244.55149999999998,-41.74205,5.859265,3.5832385e-05
74.5,66.557325,244.40055,-41.775615,5.851,3.5693945000000004e-05
75.0,66.595875,244.0398,-41.65982,5.858605,3.554233e-05
75.5,66.70705000000001,243.92565,-41.79911,5.83617,3.546285e-05
