time delay,stg_pos,V_in,V_out,ratio,DVD
101.0,69.0005,17.74126,8.642765,-2.053185,4.14474e-05
102.0,69.173925,17.699965,8.654340000000001,-2.0457799999999997,4.1718800000000005e-05
103.0,69.3237,17.629974999999998,8.655339999999999,-2.037465,4.1481585e-05
104.0,69.47375,17.558975,8.654865,-2.02935,4.148817e-05
105.0,69.624675,17.51466,8.646795000000001,-2.0262000000000002,4.1396579999999995e-05
106.0,69.7751,17.500055,8.64779,-2.0241,4.1641865e-05
107.0,69.9259,17.509135,8.644275,-2.025845,4.153257e-05
108.0,70.076375,17.52372,8.657354999999999,-2.02433,4.170799e-05
109.0,70.22447500000001,17.61789,8.65938,-2.034795,4.1435615e-05
110.0,70.37525,17.750315,8.667945,-2.0480150000000004,4.153439e-05
111.0,70.525225,17.956780000000002,8.690605,-2.066455,4.1408150000000004e-05
112.0,70.674825,18.19645,8.677005,-2.0972049999999998,4.1456535e-05
113.0,70.826175,18.43766,8.683045,-2.1236550000000003,4.139849e-05
114.0,70.975725,18.591735,8.684560000000001,-2.1410299999999998,4.1408735e-05
115.0,71.1269,18.831415,8.663915,-2.17373,4.1572499999999995e-05
116.0,71.278075,18.98751,8.669450000000001,-2.19039,4.1490335e-05
117.0,71.427125,19.11744,8.678525,-2.203185,4.1583675e-05
118.0,71.57595,19.2111,8.672985,-2.215555,4.1547825000000004e-05
119.0,71.7256,19.192974999999997,8.684045000000001,-2.21006,4.1658709999999995e-05
120.0,71.87519999999999,19.1255,8.665420000000001,-2.20725,4.1578855e-05
121.0,72.025175,19.005645,8.67198,-2.191885,4.1453345e-05
122.0,72.17595,18.837465,8.66995,-2.173,4.1723085e-05
123.0,72.32554999999999,18.66123,8.668429999999999,-2.15312,4.1335035e-05
124.0,72.47742500000001,18.367655,8.66191,-2.12063,4.143407e-05
125.0,72.62604999999999,18.011655,8.6614,-2.0795500000000002,4.1373434999999995e-05
126.0,72.77574999999999,17.5212,8.680015000000001,-2.01853,4.1570335e-05
127.0,72.92597500000001,17.043345,8.675495,-1.9644749999999997,4.1604659999999995e-05
128.0,73.074725,16.569025,8.65737,-1.91385,4.1511405e-05
129.0,73.225075,16.080075,8.62766,-1.86387,4.156279e-05
130.0,73.376,15.560910000000002,8.620614999999999,-1.80546,4.1335945e-05
131.0,73.526625,14.89776,8.63018,-1.72679,4.1479905e-05
132.0,73.6772,14.40228,8.622125,-1.670795,4.1459555e-05
133.0,73.82792500000001,13.770325,8.61407,-1.5989900000000001,4.1635190000000003e-05
134.0,73.975975,13.189760000000001,8.611545,-1.531925,4.159144e-05
135.0,74.1263,12.619235,8.616065,-1.465,4.153617e-05
136.0,74.275875,11.95859,8.597449999999998,-1.39124,4.16016e-05
137.0,74.425,11.337715,8.627655,-1.314365,4.154764e-05
138.0,74.574675,10.94042,8.63269,-1.267715,4.1402414999999996e-05
139.0,74.72555,10.46558,8.63621,-1.212265,4.1658825e-05
140.0,74.8762,10.15692,8.630675,-1.1773099999999999,4.141031e-05
141.0,75.026375,9.87895,8.637735,-1.14406,4.142407e-05
142.0,75.1757,9.674510000000001,8.64378,-1.11953,4.1337e-05
143.0,75.3257,9.533535,8.649825,-1.102405,4.1460234999999996e-05
144.0,75.47585000000001,9.408655,8.657869999999999,-1.08691,4.1312675e-05
145.0,75.625125,9.36434,8.66391,-1.081045,4.14589e-05
146.0,75.775225,9.399094999999999,8.66845,-1.08454,4.133728e-05
147.0,75.92592499999999,9.47411,8.678014999999998,-1.091915,4.140156e-05
148.0,76.076525,9.602015,8.669464999999999,-1.10782,4.133979e-05
149.0,76.22727499999999,9.771695,8.66442,-1.1281649999999999,4.1381285e-05
150.0,76.377475,10.022465,8.649809999999999,-1.159015,4.1324935e-05
151.0,76.5258,10.24352,8.655355,-1.183925,4.145878e-05
152.0,76.67609999999999,10.456014999999999,8.65836,-1.207945,4.1520755e-05
153.0,76.8249,10.63278,8.65436,-1.228985,4.140921e-05
154.0,76.975225,10.801449999999999,8.65837,-1.24779,4.131195e-05
155.0,77.1258,10.954004999999999,8.6755,-1.262955,4.1371725e-05
156.0,77.27664999999999,11.04567,8.677505,-1.2731400000000002,4.1224345e-05
157.0,77.4274,11.088465,8.68355,-1.277205,4.1139685e-05
158.0,77.57745,11.07134,8.699665,-1.27277,4.1435315e-05
159.0,77.7259,11.01243,8.691095,-1.26723,4.1579715000000005e-05
160.0,77.875725,10.925324999999999,8.67348,-1.2598850000000001,4.161767e-05
161.0,78.0251,10.797414999999999,8.650305,-1.24838,4.1808965e-05
162.0,78.175275,10.616145,8.664405,-1.22543,4.168987e-05
163.0,78.32575,10.38653,8.658355,-1.19974,4.157113e-05
164.0,78.4755,10.028505,8.673485,-1.156285,4.1414445000000004e-05
165.0,78.6262,9.575334999999999,8.666934999999999,-1.10486,4.155058e-05
166.0,78.77747500000001,9.12063,8.665420000000001,-1.05244902,4.1471505e-05
167.0,78.92632499999999,8.71174,8.6639,-1.0056000150000002,4.1564615e-05
168.0,79.0753,8.229865,8.66644,-0.949598945,4.138659e-05
169.0,79.22547499999999,7.7288499999999996,8.67046,-0.8915277400000001,4.137181e-05
170.0,79.37505,7.20869,8.66341,-0.83218043,4.1447475e-05
171.0,79.525025,6.603425,8.658384999999999,-0.76268868,4.1398935e-05
172.0,79.675925,6.063605,8.65738,-0.70047401,4.150264e-05
173.0,79.825775,5.5258400000000005,8.661395,-0.6380676399999999,4.1431474999999996e-05
174.0,79.976325,5.004175,8.66341,-0.577681905,4.1318270000000005e-05
175.0,80.12604999999999,4.599819999999999,8.666425,-0.53073739,4.147171e-05
176.0,80.275225,4.220174999999999,8.666419999999999,-0.48688826,4.1488805e-05
177.0,80.42530000000001,3.942205,8.675495,-0.45434351,4.148886e-05
178.0,80.57445,3.63605,8.672475,-0.419135355,4.1560194999999995e-05
179.0,80.724775,3.4049350000000005,8.67246,-0.39247804,4.1664265e-05
180.0,80.87545,3.20955,8.669450000000001,-0.370204195,4.150496e-05
181.0,81.02605,3.088705,8.67851,-0.355932605,4.142434e-05
182.0,81.17677499999999,3.04035,8.68757,-0.350071075,4.1549775e-05
183.0,81.32764999999999,3.0267600000000003,8.686060000000001,-0.34859827,4.1523335e-05
184.0,81.476,3.09221,8.698654999999999,-0.355591675,4.1361244999999996e-05
185.0,81.625675,3.20903,8.700665,-0.36904959000000004,4.1330675e-05
186.0,81.77565,3.4311149999999997,8.687065,-0.39515188,4.1280185e-05
187.0,81.9248,3.646125,8.69463,-0.41949974,4.14848e-05
188.0,82.076225,3.871695,8.70872,-0.444749235,4.1410735e-05
189.0,82.22585000000001,4.163765,8.68909,-0.47926267000000006,4.160031e-05
190.0,82.376825,4.43164,8.71023,-0.508889455,4.1565539999999996e-05
191.0,82.52725000000001,4.672845000000001,8.718795,-0.535979145,4.1412175e-05
192.0,82.67635,4.893895,8.719800000000001,-0.56142316,4.1620975e-05
193.0,82.82547500000001,5.122504999999999,8.717780000000001,-0.58781539,4.146814e-05
194.0,82.9761,5.296725,8.70569,-0.6085557149999999,4.142569e-05
195.0,83.12502500000001,5.4729849999999995,8.7042,-0.6289917700000001,4.142902e-05
196.0,83.275225,5.597845,8.70167,-0.6435899,4.1576410000000005e-05
197.0,83.425275,5.695525,8.712745,-0.65404485,4.1537885e-05
198.0,83.575925,5.68998,8.69966,-0.65418635,4.1536835e-05
199.0,83.72735,5.61194,8.70722,-0.64457789,4.1430665e-05
200.0,83.87705,5.461385,8.72635,-0.625799845,4.1410405e-05
201.0,84.02574999999999,5.33249,8.71679,-0.61166916,4.1321450000000004e-05
202.0,84.17602500000001,5.12201,8.70016,-0.58862912,4.145517e-05
203.0,84.3245,4.818855,8.69463,-0.5541948299999999,4.142532e-05
204.0,84.47547499999999,4.40545,8.68256,-0.507345545,4.1605045e-05
205.0,84.62582499999999,3.976435,8.687585,-0.457596805,4.1574635e-05
206.0,84.7761,3.6013100000000002,8.68758,-0.41440979999999994,4.1609735e-05
207.0,84.927175,3.10028,8.67701,-0.35732000999999997,4.124358e-05
208.0,85.0769,2.59019,8.686580000000001,-0.29835292,4.1535775e-05
209.0,85.226225,2.11685,8.69665,-0.243538605,4.142929e-05
210.0,85.37585,1.6248919000000002,8.672975,-0.18741797,4.1453705e-05
211.0,85.5254,1.0856085,8.66844,-0.12516270000000002,4.1449195e-05
212.0,85.67465,0.654074345,8.650815,-0.07541925000000001,4.152898e-05
213.0,85.825375,0.195350695,8.672975,-0.022208525,4.1511445e-05
214.0,85.975725,-0.12289670999999999,8.66341,0.01441182,4.1388465e-05
215.0,86.12652499999999,-0.5116281500000001,8.69563,0.058974294999999996,4.1266615e-05
216.0,86.27795,-0.7714503500000001,8.6765,0.088925535,4.140161e-05
217.0,86.42675,-0.9975417999999999,8.661385,0.11527066500000001,4.129488e-05
218.0,86.575575,-1.1501233499999999,8.65586,0.13291713,4.1252235e-05
219.0,86.72592499999999,-1.29463405,8.67549,0.14919095,4.162801e-05
220.0,86.875275,-1.3656321,8.67902,0.15727845499999998,4.153069e-05
221.0,87.025675,-1.3752010000000001,8.704195,0.15800613000000002,4.138999e-05
222.0,87.1755,-1.2981589999999998,8.695635,0.14940558,4.1207975e-05
223.0,87.326125,-1.17429505,8.68707,0.13524049,4.1555465e-05
224.0,87.477225,-0.9582811,8.690104999999999,0.11033658500000001,4.152466e-05
225.0,87.627025,-0.7679267999999999,8.687585,0.088406525,4.147089e-05
226.0,87.775475,-0.53377705,8.690104999999999,0.06139085,4.1536885000000004e-05
227.0,87.92545,-0.30417,8.705205,0.03494612,4.133722e-05
228.0,88.074625,-0.04735778,8.71124,0.005460875,4.1445415e-05
229.0,88.2248,0.18879656,8.712765000000001,-0.021625805,4.1525505e-05
230.0,88.37537499999999,0.38668797,8.71074,-0.044313085,4.155634e-05
231.0,88.526375,0.66615505,8.711745,-0.07638765,4.1402825000000005e-05
232.0,88.6766,0.88167425,8.71678,-0.101213845,4.150931e-05
233.0,88.828,1.0815815,8.701165,-0.12439272999999999,4.1591025e-05
234.0,88.976225,1.2361701,8.67801,-0.14238836,4.1288895000000003e-05
235.0,89.12627499999999,1.3454288,8.680535,-0.154986645,4.137943e-05
236.0,89.275875,1.3655792500000001,8.68909,-0.15716942,4.1565640000000003e-05
237.0,89.42564999999999,1.35098685,8.70319,-0.155256225,4.1539375e-05
238.0,89.5756,1.2291181999999998,8.682545000000001,-0.14155,4.120223e-05
239.0,89.726275,1.1193521,8.678505,-0.128874125,4.1357375e-05
240.0,89.876775,0.9219588249999999,8.676495,-0.10624246,4.11901e-05
241.0,90.02747500000001,0.654577415,8.668445,-0.07554785,4.130298e-05
242.0,90.17585,0.41338008000000004,8.669455,-0.047590415,4.1237905e-05
243.0,90.324975,0.079022705,8.660385,-0.009025725000000002,4.1361080000000005e-05
244.0,90.47552499999999,-0.37264989000000004,8.67699,0.04300799,4.1289849999999996e-05
245.0,90.62455,-0.8062093300000001,8.677995,0.09297614,4.1488975e-05
246.0,90.77495,-1.3047134,8.668955,0.150552555,4.152172e-05
247.0,90.92519999999999,-1.74480195,8.648815,0.20167927,4.163118e-05
248.0,91.076125,-2.2015149999999997,8.65837,0.25446689,4.1490885e-05
249.0,91.22755,-2.698,8.66492,0.311547315,4.1516805e-05
250.0,91.3767,-3.15522,8.664415,0.36434511999999997,4.1561575000000004e-05
251.0,91.525425,-3.5696350000000003,8.656365,0.41264178000000007,4.160522e-05
252.0,91.6757,-3.959375,8.65937,0.45771450500000005,4.1655215e-05
253.0,91.82475000000001,-4.29725,8.66089,0.496427145,4.1678765e-05
254.0,91.974675,-4.557585,8.658375,0.526811645,4.1463205e-05
255.0,92.12625,-4.851145,8.6619,0.5606018500000001,4.147722e-05
256.0,92.27619999999999,-5.093865,8.657865,0.5889665199999999,4.1742165e-05
257.0,92.427475,-5.22478,8.65938,0.6039445,4.1632225e-05
258.0,92.577575,-5.2686,8.659385,0.60894251,4.154521e-05
259.0,92.726,-5.26708,8.657365,0.609000615,4.1599045e-05
260.0,92.87615,-5.203635,8.678014999999998,0.60011716,4.141738e-05
261.0,93.025125,-5.090835,8.683035,0.586763865,4.1397325e-05
262.0,93.175025,-4.92518,8.673485,0.5681979,4.153813e-05
263.0,93.32545,-4.73887,8.68558,0.545907855,4.138213e-05
264.0,93.475375,-4.4694650000000005,8.683555,0.515037395,4.125318e-05
265.0,93.62559999999999,-4.24288,8.703695,0.48776800500000006,4.124334e-05
266.0,93.77697500000001,-3.980035,8.716275,0.45706442999999997,4.1080765e-05
267.0,93.92642500000001,-3.6809200000000004,8.70873,0.422960595,4.1372455e-05
268.0,94.074675,-3.36167,8.716280000000001,0.38592737499999996,4.1381600000000004e-05
269.0,94.2252,-3.11997,8.728865,0.357618045,4.1317280000000004e-05
270.0,94.37474999999999,-2.88179,8.726345,0.33041901500000004,4.1261165e-05
271.0,94.5256,-2.68491,8.728359999999999,0.307753775,4.139762e-05
272.0,94.67625000000001,-2.51925,8.732395,0.288638585,4.1347895e-05
273.0,94.8266,-2.409465,8.732384999999999,0.27600534,4.1560995e-05
274.0,94.9779,-2.34603,8.73491,0.268654355,4.160612e-05
275.0,95.127375,-2.350065,8.73643,0.26914552999999997,4.149567e-05
276.0,95.275825,-2.39035,8.740455,0.27370217,4.156653e-05
277.0,95.42564999999999,-2.4562999999999997,8.717789999999999,0.28195709999999996,4.163163e-05
278.0,95.57457500000001,-2.635065,8.71426,0.30250104499999997,4.142117e-05
279.0,95.723975,-2.820865,8.712250000000001,0.32397264,4.152455e-05
280.0,95.8754,-3.122495,8.707215,0.358811905,4.169067e-05
281.0,96.025775,-3.3918799999999996,8.684059999999999,0.39083666,4.1604705e-05
282.0,96.1765,-3.65975,8.67751,0.42197430999999996,4.1572585e-05
283.0,96.327125,-4.04046,8.68808,0.46528807,4.1815645e-05
284.0,96.4753,-4.513775,8.698645,0.51904585,4.170538e-05
285.0,96.62505,-4.93977,8.69462,0.5682767550000001,4.1626054999999995e-05
286.0,96.77445,-5.40907,8.67952,0.6233213799999999,4.1555344999999995e-05
287.0,96.924325,-5.82601,8.684560000000001,0.671013555,4.166395e-05
288.0,97.075525,-6.2968150000000005,8.68758,0.7249128899999999,4.1476540000000005e-05
289.0,97.226125,-6.671955,8.67904,0.76897673,4.140549e-05
290.0,97.376675,-6.9982500000000005,8.6745,0.807104545,4.158705e-05
291.0,97.52785,-7.342165,8.662405,0.84787099,4.173545e-05
292.0,97.67654999999999,-7.6488249999999995,8.66391,0.88307377,4.180251e-05
293.0,97.82565,-7.918214999999999,8.68757,0.911657835,4.1643265e-05
294.0,97.97540000000001,-8.142805,8.691605,0.9370758800000001,4.1536805e-05
295.0,98.12455,-8.30141,8.70721,0.9536284399999999,4.1471595000000004e-05
296.0,98.274575,-8.36838,8.69866,0.9622330050000001,4.1663215e-05
297.0,98.42485,-8.38903,8.69363,0.9652025350000001,4.1611170000000004e-05
298.0,98.575275,-8.32912,8.69764,0.95788184,4.1658329999999996e-05
299.0,98.72562500000001,-8.25107,8.702164999999999,0.94827963,4.170143e-05
300.0,98.8762,-8.05922,8.713764999999999,0.924994485,4.165211e-05
301.0,99.02392499999999,-7.88247,8.721325,0.903897115,4.1703235e-05
